time	V(output2)	V(vin2)
0.000000000000000e+000	7.611439e-009	-1.000000e+000
1.462857101484718e-007	7.611439e-009	-9.999997e-001
2.925714202969436e-007	7.611439e-009	-9.999994e-001
4.388571304454154e-007	7.611439e-009	-9.999991e-001
5.851428405938872e-007	7.611439e-009	-9.999988e-001
7.314285507423590e-007	7.611439e-009	-9.999986e-001
8.777142608908308e-007	7.611439e-009	-9.999983e-001
1.023999971039302e-006	7.611439e-009	-9.999980e-001
8.191999768314418e-006	7.611286e-009	-9.999836e-001
1.638399953662884e-005	7.611025e-009	-9.999672e-001
3.276799907325767e-005	7.610500e-009	-9.999344e-001
6.553599814651534e-005	7.609452e-009	-9.998689e-001
1.310719962930307e-004	7.607355e-009	-9.997379e-001
1.809166354651657e-004	7.605760e-009	-9.996381e-001
2.231286389370173e-004	7.604409e-009	-9.995537e-001
2.695274081496160e-004	7.602925e-009	-9.994609e-001
2.950801945587877e-004	7.602109e-009	-9.994099e-001
3.218345879531374e-004	7.601254e-009	-9.993563e-001
3.753433747418368e-004	7.599547e-009	-9.992493e-001
4.242493357382728e-004	7.597986e-009	-9.991515e-001
4.938670271533729e-004	7.595765e-009	-9.990123e-001
5.622715507403940e-004	7.593590e-009	-9.988754e-001
6.516457471781814e-004	7.590769e-009	-9.986967e-001
7.445532502436018e-004	7.587893e-009	-9.985109e-001
8.576760447843909e-004	7.584574e-009	-9.982846e-001
9.759444246297205e-004	7.581640e-009	-9.980481e-001
1.109454410550684e-003	7.579837e-009	-9.977811e-001
1.230432534686530e-003	7.581107e-009	-9.975392e-001
1.322126365578983e-003	7.586202e-009	-9.973558e-001
1.401081678831614e-003	7.596479e-009	-9.971979e-001
1.476189971974208e-003	7.615653e-009	-9.970476e-001
1.556770655632301e-003	7.653250e-009	-9.968864e-001
1.630396235042209e-003	7.715862e-009	-9.967392e-001
1.705580160130264e-003	7.831918e-009	-9.965888e-001
1.775220642742247e-003	8.026253e-009	-9.964495e-001
1.836215316022288e-003	8.335457e-009	-9.963276e-001
1.888577636861841e-003	8.813418e-009	-9.962229e-001
1.930866897623410e-003	9.404761e-009	-9.961383e-001
1.936536644422540e-003	9.517582e-009	-9.961269e-001
1.947876138020799e-003	9.835283e-009	-9.961042e-001
1.970555125217318e-003	1.079098e-008	-9.960589e-001
1.985012977461219e-003	1.203555e-008	-9.960300e-001
2.000347485278316e-003	1.426594e-008	-9.959993e-001
2.002332770634841e-003	1.467625e-008	-9.959953e-001
2.006303341347891e-003	1.566001e-008	-9.959874e-001
2.007295984026153e-003	1.592354e-008	-9.959854e-001
2.009281269382678e-003	1.649971e-008	-9.959815e-001
2.013251840095728e-003	1.780663e-008	-9.959735e-001
2.019828968622482e-003	2.050466e-008	-9.959604e-001
2.030580896722199e-003	2.626739e-008	-9.959388e-001
2.041989790705902e-003	3.432008e-008	-9.959160e-001
2.053113154155679e-003	4.469439e-008	-9.958938e-001
2.065452013681246e-003	5.972862e-008	-9.958691e-001
2.079557483436225e-003	8.041637e-008	-9.958409e-001
2.081135886839009e-003	8.305378e-008	-9.958377e-001
2.084292693644576e-003	8.884810e-008	-9.958314e-001
2.090606307255710e-003	1.013693e-007	-9.958188e-001
2.100169135366729e-003	1.224073e-007	-9.957997e-001
2.109672711989122e-003	1.461230e-007	-9.957806e-001
2.123063473325669e-003	1.842621e-007	-9.957539e-001
2.137936730019283e-003	2.323215e-007	-9.957241e-001
2.154723928842972e-003	2.935281e-007	-9.956905e-001
2.172649374750090e-003	3.667566e-007	-9.956547e-001
2.193400285322322e-003	4.617528e-007	-9.956132e-001
2.214190513334171e-003	5.708689e-007	-9.955716e-001
2.237482006739571e-003	7.189603e-007	-9.955251e-001
2.262454560525984e-003	9.294686e-007	-9.954751e-001
2.291467344771240e-003	1.287031e-006	-9.954171e-001
2.324239548950721e-003	1.911450e-006	-9.953515e-001
2.362781847415337e-003	2.996449e-006	-9.952744e-001
2.406468051102736e-003	4.463683e-006	-9.951870e-001
2.455521901048461e-003	5.327238e-006	-9.950889e-001
2.507739955771720e-003	3.591799e-006	-9.949845e-001
2.536856470458909e-003	-2.168675e-007	-9.949263e-001
2.560220143110246e-003	-6.330790e-006	-9.948795e-001
2.581799071050202e-003	-1.519352e-005	-9.948364e-001
2.603410788493289e-003	-2.792598e-005	-9.947932e-001
2.624904516848976e-003	-4.525231e-005	-9.947502e-001
2.647565454783296e-003	-6.950765e-005	-9.947048e-001
2.671651782793199e-003	-1.033123e-004	-9.946567e-001
2.701199290217654e-003	-1.573989e-004	-9.945976e-001
2.736233536065343e-003	-2.349040e-004	-9.945275e-001
2.740525272123388e-003	-2.458413e-004	-9.945189e-001
2.749108744239478e-003	-2.695911e-004	-9.945018e-001
2.751254612268501e-003	-2.757154e-004	-9.944975e-001
2.755546348326545e-003	-2.884222e-004	-9.944889e-001
2.764129820442635e-003	-3.150575e-004	-9.944717e-001
2.781296764674815e-003	-3.709387e-004	-9.944374e-001
2.784634921608839e-003	-3.822796e-004	-9.944307e-001
2.785469460842346e-003	-3.851963e-004	-9.944291e-001
2.787138539309358e-003	-3.910791e-004	-9.944257e-001
2.790476696243383e-003	-4.030396e-004	-9.944190e-001
2.797153010111432e-003	-4.277194e-004	-9.944057e-001
2.810505637847530e-003	-4.799567e-004	-9.943790e-001
2.836506765634176e-003	-5.897200e-004	-9.943270e-001
2.863211756286483e-003	-7.132015e-004	-9.942736e-001
2.895488154869586e-003	-8.779072e-004	-9.942091e-001
2.933823413149760e-003	-1.096756e-003	-9.941323e-001
3.009481584659363e-003	-1.584827e-003	-9.939811e-001
3.110151930007014e-003	-2.308527e-003	-9.937797e-001
3.201947528691677e-003	-3.026165e-003	-9.935961e-001
3.294784848083443e-003	-3.789545e-003	-9.934104e-001
3.385485959407700e-003	-4.551735e-003	-9.932290e-001
3.493479434959149e-003	-5.463076e-003	-9.930130e-001
3.612935719868554e-003	-6.463909e-003	-9.927741e-001
3.743335546551589e-003	-7.541748e-003	-9.925134e-001
3.898360213456663e-003	-8.802225e-003	-9.922033e-001
4.097178846318639e-003	-1.039128e-002	-9.918056e-001
4.273922079806606e-003	-1.177896e-002	-9.914522e-001
4.434752000674345e-003	-1.301835e-002	-9.911305e-001
4.611022415123025e-003	-1.435235e-002	-9.907780e-001
4.775436956244021e-003	-1.557400e-002	-9.904491e-001
4.948710519074278e-003	-1.683695e-002	-9.901026e-001
5.128330178084271e-003	-1.812663e-002	-9.897434e-001
5.142797194280480e-003	-1.822934e-002	-9.897144e-001
5.171731226672897e-003	-1.843308e-002	-9.896565e-001
5.229599291457732e-003	-1.883870e-002	-9.895408e-001
5.289200214477032e-003	-1.925438e-002	-9.894216e-001
5.313293662944457e-003	-1.942170e-002	-9.893734e-001
5.315753441251457e-003	-1.943874e-002	-9.893685e-001
5.320672997865456e-003	-1.947277e-002	-9.893587e-001
5.330512111093456e-003	-1.954078e-002	-9.893390e-001
5.342911387738870e-003	-1.962638e-002	-9.893142e-001
5.356412027237014e-003	-1.971941e-002	-9.892872e-001
5.383413306233302e-003	-1.990516e-002	-9.892332e-001
5.387878511649932e-003	-1.993584e-002	-9.892243e-001
5.396808922483194e-003	-1.999713e-002	-9.892064e-001
5.407033755122685e-003	-2.006735e-002	-9.891859e-001
5.417267370561738e-003	-2.013778e-002	-9.891655e-001
5.432062540237282e-003	-2.024010e-002	-9.891359e-001
5.447853056599060e-003	-2.035012e-002	-9.891043e-001
5.460530278151580e-003	-2.043919e-002	-9.890789e-001
5.463699583539710e-003	-2.046164e-002	-9.890726e-001
5.470038194315970e-003	-2.050679e-002	-9.890599e-001
5.471622847010036e-003	-2.051812e-002	-9.890568e-001
5.474792152398166e-003	-2.054089e-002	-9.890504e-001
5.481130763174426e-003	-2.058670e-002	-9.890378e-001
5.488306474072751e-003	-2.063909e-002	-9.890234e-001
5.500566228998205e-003	-2.072998e-002	-9.889989e-001
5.513336758046580e-003	-2.082727e-002	-9.889733e-001
5.538689853694523e-003	-2.102701e-002	-9.889226e-001
5.553171800468968e-003	-2.114549e-002	-9.888936e-001
5.566806662054234e-003	-2.126180e-002	-9.888664e-001
5.581734837349578e-003	-2.139467e-002	-9.888365e-001
5.601105223844123e-003	-2.157576e-002	-9.887978e-001
5.621142116172886e-003	-2.177708e-002	-9.887577e-001
5.661050014146405e-003	-2.221721e-002	-9.886779e-001
5.702065284949073e-003	-2.272584e-002	-9.885958e-001
5.753996576913880e-003	-2.345884e-002	-9.884920e-001
5.803769968154412e-003	-2.425622e-002	-9.883925e-001
5.869939000334030e-003	-2.545705e-002	-9.882601e-001
5.977800532864848e-003	-2.757821e-002	-9.880444e-001
5.981168218292366e-003	-2.764790e-002	-9.880376e-001
5.987903589147402e-003	-2.779173e-002	-9.880242e-001
6.001374330857475e-003	-2.808193e-002	-9.879972e-001
6.028315814277620e-003	-2.866813e-002	-9.879434e-001
6.035051185132655e-003	-2.881632e-002	-9.879299e-001
6.048521926842728e-003	-2.911621e-002	-9.879029e-001
6.075463410262873e-003	-2.972287e-002	-9.878491e-001
6.110835396994268e-003	-3.052828e-002	-9.877783e-001
6.115564728668198e-003	-3.063706e-002	-9.877689e-001
6.125023392016057e-003	-3.085604e-002	-9.877499e-001
6.127388057853022e-003	-3.091092e-002	-9.877452e-001
6.132117389526952e-003	-3.102099e-002	-9.877357e-001
6.141576052874811e-003	-3.124195e-002	-9.877169e-001
6.160493379570528e-003	-3.168651e-002	-9.876790e-001
6.187991690774988e-003	-3.233768e-002	-9.876240e-001
6.218254914474327e-003	-3.306103e-002	-9.875635e-001
6.266026534755532e-003	-3.421157e-002	-9.874679e-001
6.275508184611723e-003	-3.444130e-002	-9.874490e-001
6.294471484324105e-003	-3.490300e-002	-9.874111e-001
6.332398083748869e-003	-3.582887e-002	-9.873352e-001
6.381462954233131e-003	-3.702915e-002	-9.872371e-001
6.427179111587661e-003	-3.814841e-002	-9.871457e-001
6.475226067386523e-003	-3.932340e-002	-9.870495e-001
6.571319978984249e-003	-4.166611e-002	-9.868574e-001
6.660616477124073e-003	-4.383165e-002	-9.866788e-001
6.747620435074567e-003	-4.592651e-002	-9.865047e-001
6.840025270075141e-003	-4.813453e-002	-9.863200e-001
6.942254789634283e-003	-5.055992e-002	-9.861155e-001
7.063458161037933e-003	-5.341713e-002	-9.858731e-001
7.209986508373888e-003	-5.684970e-002	-9.855800e-001
7.409213944299659e-003	-6.148656e-002	-9.851816e-001
7.586320477712724e-003	-6.558044e-002	-9.848273e-001
7.746501726356320e-003	-6.925620e-002	-9.845070e-001
7.923923881389197e-003	-7.329889e-002	-9.841521e-001
8.091027867206092e-003	-7.707936e-002	-9.838179e-001
8.262876453950054e-003	-8.093880e-002	-9.834743e-001
8.429224180612207e-003	-8.465060e-002	-9.831415e-001
8.518348189582001e-003	-8.662973e-002	-9.829633e-001
8.527386332979134e-003	-8.682980e-002	-9.829452e-001
8.545462619773400e-003	-8.722927e-002	-9.829091e-001
8.581615193361931e-003	-8.802719e-002	-9.828368e-001
8.632577675835033e-003	-8.915039e-002	-9.827349e-001
8.654007509117708e-003	-8.962203e-002	-9.826920e-001
8.670618451542331e-003	-8.998719e-002	-9.826587e-001
8.684622124482374e-003	-9.029480e-002	-9.826307e-001
8.699695207247485e-003	-9.062566e-002	-9.826006e-001
8.719266698046862e-003	-9.105492e-002	-9.825615e-001
8.739368729916285e-003	-9.149534e-002	-9.825212e-001
8.779572793655132e-003	-9.237522e-002	-9.824408e-001
8.797558636120759e-003	-9.276851e-002	-9.824049e-001
8.800566388356777e-003	-9.283425e-002	-9.823989e-001
8.806581892828812e-003	-9.296573e-002	-9.823868e-001
8.818610616622121e-003	-9.322877e-002	-9.823628e-001
8.832272697000871e-003	-9.352791e-002	-9.823354e-001
8.847665972373417e-003	-9.386596e-002	-9.823047e-001
8.876546557153251e-003	-9.450282e-002	-9.822469e-001
8.892059838289926e-003	-9.484667e-002	-9.822159e-001
8.905880763905898e-003	-9.515475e-002	-9.821882e-001
8.918109939560964e-003	-9.542844e-002	-9.821638e-001
8.920749655329512e-003	-9.548771e-002	-9.821585e-001
8.926029086866608e-003	-9.560665e-002	-9.821479e-001
8.936587949940801e-003	-9.584540e-002	-9.821268e-001
8.949421730397760e-003	-9.613720e-002	-9.821011e-001
8.963407587485147e-003	-9.645829e-002	-9.820732e-001
8.991379301659922e-003	-9.711048e-002	-9.820172e-001
9.030967142835661e-003	-9.804983e-002	-9.819381e-001
9.049360105850762e-003	-9.849361e-002	-9.819013e-001
9.053958346604536e-003	-9.860612e-002	-9.818921e-001
9.063154828112086e-003	-9.883315e-002	-9.818737e-001
9.075369097782619e-003	-9.913731e-002	-9.818493e-001
9.090971926435008e-003	-9.953058e-002	-9.818181e-001
9.108282616112086e-003	-9.997455e-002	-9.817834e-001
9.139134955750895e-003	-1.007853e-001	-9.817218e-001
9.180349818733235e-003	-1.019030e-001	-9.816393e-001
9.228315003312115e-003	-1.032587e-001	-9.815434e-001
9.287762441436592e-003	-1.050280e-001	-9.814245e-001
9.370007278339650e-003	-1.075854e-001	-9.812600e-001
9.385465337658822e-003	-1.080825e-001	-9.812291e-001
9.389329852488615e-003	-1.082092e-001	-9.812213e-001
9.397058882148200e-003	-1.084636e-001	-9.812059e-001
9.412516941467372e-003	-1.089745e-001	-9.811749e-001
9.416381456297165e-003	-1.091028e-001	-9.811673e-001
9.417347585004614e-003	-1.091350e-001	-9.811653e-001
9.419279842419510e-003	-1.091994e-001	-9.811614e-001
9.423144357249303e-003	-1.093284e-001	-9.811537e-001
9.430873386908888e-003	-1.095873e-001	-9.811382e-001
9.446331446228060e-003	-1.101078e-001	-9.811074e-001
9.476497089575296e-003	-1.111319e-001	-9.810470e-001
9.524089336533238e-003	-1.127591e-001	-9.809518e-001
9.532013456925016e-003	-1.130317e-001	-9.809360e-001
9.547861697708573e-003	-1.135791e-001	-9.809043e-001
9.579558179275687e-003	-1.146752e-001	-9.808409e-001
9.614436105379104e-003	-1.158819e-001	-9.807711e-001
9.651002771648102e-003	-1.171442e-001	-9.806980e-001
9.724136104186099e-003	-1.196550e-001	-9.805517e-001
9.786585789631758e-003	-1.217854e-001	-9.804268e-001
9.787404828388900e-003	-1.218132e-001	-9.804252e-001
9.789042905903184e-003	-1.218686e-001	-9.804219e-001
9.789452425281755e-003	-1.218824e-001	-9.804211e-001
9.790271464038897e-003	-1.219101e-001	-9.804195e-001
9.791909541553181e-003	-1.219654e-001	-9.804162e-001
9.795185696581747e-003	-1.220760e-001	-9.804096e-001
9.801738006638881e-003	-1.222968e-001	-9.803965e-001
9.814842626753148e-003	-1.227370e-001	-9.803703e-001
9.837862257023903e-003	-1.235054e-001	-9.803243e-001
9.883402221208981e-003	-1.250101e-001	-9.802332e-001
9.944775259244958e-003	-1.270101e-001	-9.801105e-001
1.002638841580428e-002	-1.296269e-001	-9.799472e-001
1.012536275880306e-002	-1.327525e-001	-9.797493e-001
1.021665699111831e-002	-1.356000e-001	-9.795667e-001
1.030884713103690e-002	-1.384495e-001	-9.793823e-001
1.040645607836037e-002	-1.414483e-001	-9.791871e-001
1.052382492746851e-002	-1.450386e-001	-9.789523e-001
1.066043328242360e-002	-1.492008e-001	-9.786791e-001
1.084821617035487e-002	-1.548975e-001	-9.783036e-001
1.102460759227649e-002	-1.602239e-001	-9.779508e-001
1.118639989553453e-002	-1.650850e-001	-9.776272e-001
1.136125518305590e-002	-1.703127e-001	-9.772775e-001
1.152719108908768e-002	-1.752489e-001	-9.769456e-001
1.169912821468845e-002	-1.803376e-001	-9.766017e-001
1.186477558975675e-002	-1.852208e-001	-9.762704e-001
1.187901814378985e-002	-1.856394e-001	-9.762419e-001
1.190750325185604e-002	-1.864749e-001	-9.761850e-001
1.196447346798843e-002	-1.881439e-001	-9.760711e-001
1.202446468040402e-002	-1.898990e-001	-9.759511e-001
1.204852498569187e-002	-1.906021e-001	-9.759030e-001
1.205094646015983e-002	-1.906729e-001	-9.758981e-001
1.205578940909577e-002	-1.908142e-001	-9.758884e-001
1.206547530696765e-002	-1.910969e-001	-9.758691e-001
1.207748403773950e-002	-1.914473e-001	-9.758450e-001
1.209075383579303e-002	-1.918343e-001	-9.758185e-001
1.211729343190010e-002	-1.926077e-001	-9.757654e-001
1.215426509937799e-002	-1.936841e-001	-9.756915e-001
1.219969569683691e-002	-1.950057e-001	-9.756006e-001
1.221996289775662e-002	-1.955951e-001	-9.755601e-001
1.222098749548015e-002	-1.956249e-001	-9.755580e-001
1.222303669092720e-002	-1.956845e-001	-9.755539e-001
1.222713508182131e-002	-1.958037e-001	-9.755457e-001
1.223341490808085e-002	-1.959866e-001	-9.755332e-001
1.224365226274381e-002	-1.962849e-001	-9.755127e-001
1.225439018052798e-002	-1.965984e-001	-9.754912e-001
1.227586601609632e-002	-1.972275e-001	-9.754483e-001
1.230705485380245e-002	-1.981464e-001	-9.753859e-001
1.235173914120919e-002	-1.994709e-001	-9.752965e-001
1.235760398643482e-002	-1.996457e-001	-9.752848e-001
1.236933367688607e-002	-1.999974e-001	-9.752613e-001
1.239279305778858e-002	-2.007031e-001	-9.752144e-001
1.239609725050896e-002	-2.008029e-001	-9.752078e-001
1.240270563594972e-002	-2.010029e-001	-9.751946e-001
1.240387620338760e-002	-2.010384e-001	-9.751922e-001
1.240621733826335e-002	-2.011095e-001	-9.751875e-001
1.241089960801486e-002	-2.012518e-001	-9.751782e-001
1.242026414751787e-002	-2.015371e-001	-9.751595e-001
1.242884661376161e-002	-2.017997e-001	-9.751423e-001
1.244601154624909e-002	-2.023282e-001	-9.751080e-001
1.247454032963641e-002	-2.032154e-001	-9.750509e-001
1.251622887356965e-002	-2.045281e-001	-9.749675e-001
1.255004113884711e-002	-2.056044e-001	-9.748999e-001
1.255242000207814e-002	-2.056807e-001	-9.748952e-001
1.255717772854020e-002	-2.058342e-001	-9.748856e-001
1.256669318146432e-002	-2.061415e-001	-9.748666e-001
1.256809480375092e-002	-2.061869e-001	-9.748638e-001
1.257089804832412e-002	-2.062778e-001	-9.748582e-001
1.257650453747053e-002	-2.064600e-001	-9.748470e-001
1.258588924111240e-002	-2.067659e-001	-9.748282e-001
1.259563317398988e-002	-2.070850e-001	-9.748088e-001
1.261512103974483e-002	-2.077283e-001	-9.747698e-001
1.264566735158374e-002	-2.087481e-001	-9.747087e-001
1.268908283978474e-002	-2.102199e-001	-9.746218e-001
1.273540419960839e-002	-2.118203e-001	-9.745292e-001
1.279639707732492e-002	-2.139713e-001	-9.744072e-001
1.285452824413854e-002	-2.160556e-001	-9.742910e-001
1.286811216634461e-002	-2.165490e-001	-9.742638e-001
1.289528001075676e-002	-2.175454e-001	-9.742094e-001
1.294961569958105e-002	-2.195476e-001	-9.741008e-001
1.295101714548136e-002	-2.195994e-001	-9.740980e-001
1.295382003728199e-002	-2.197034e-001	-9.740924e-001
1.295942582088325e-002	-2.199115e-001	-9.740812e-001
1.296082726678356e-002	-2.199635e-001	-9.740784e-001
1.296363015858419e-002	-2.200676e-001	-9.740728e-001
1.296923594218544e-002	-2.202759e-001	-9.740615e-001
1.298044750938795e-002	-2.206927e-001	-9.740391e-001
1.300127165568372e-002	-2.214667e-001	-9.739975e-001
1.303707753433193e-002	-2.227957e-001	-9.739258e-001
1.309351873779384e-002	-2.248864e-001	-9.738129e-001
1.310511049763493e-002	-2.253145e-001	-9.737898e-001
1.312829401731713e-002	-2.261687e-001	-9.737434e-001
1.313408989723768e-002	-2.263818e-001	-9.737318e-001
1.314568165707878e-002	-2.268071e-001	-9.737086e-001
1.316886517676097e-002	-2.276547e-001	-9.736623e-001
1.319898111637279e-002	-2.287495e-001	-9.736021e-001
1.323129882590977e-002	-2.299177e-001	-9.735374e-001
1.323937825329401e-002	-2.302082e-001	-9.735212e-001
1.325553710806250e-002	-2.307860e-001	-9.734889e-001
1.328785481759948e-002	-2.319373e-001	-9.734243e-001
1.329593424498373e-002	-2.322238e-001	-9.734081e-001
1.331209309975221e-002	-2.327934e-001	-9.733758e-001
1.334441080928919e-002	-2.339249e-001	-9.733112e-001
1.338243731876444e-002	-2.352439e-001	-9.732351e-001
1.341831676768526e-002	-2.364726e-001	-9.731634e-001
1.349007566552691e-002	-2.388926e-001	-9.730198e-001
1.359307755592936e-002	-2.423142e-001	-9.728138e-001
1.368777922125703e-002	-2.454176e-001	-9.726244e-001
1.377911748116063e-002	-2.483811e-001	-9.724418e-001
1.387054430427150e-002	-2.513288e-001	-9.722589e-001
1.397826839016233e-002	-2.547868e-001	-9.720435e-001
1.410440799186590e-002	-2.588203e-001	-9.717912e-001
1.426545995351015e-002	-2.639485e-001	-9.714691e-001
1.443444402316973e-002	-2.693042e-001	-9.711311e-001
1.459958273421572e-002	-2.745114e-001	-9.708008e-001
1.477530627209532e-002	-2.800233e-001	-9.704494e-001
1.494288523794171e-002	-2.852518e-001	-9.701142e-001
1.511519215620606e-002	-2.906000e-001	-9.697696e-001
1.525086538955130e-002	-2.947946e-001	-9.694983e-001
1.526348726714442e-002	-2.951838e-001	-9.694730e-001
1.528873102233068e-002	-2.959606e-001	-9.694225e-001
1.533921853270319e-002	-2.975125e-001	-9.693215e-001
1.539874687156373e-002	-2.993398e-001	-9.692025e-001
1.542227367555215e-002	-3.000612e-001	-9.691554e-001
