time	V(spikes1)	V(spikes2)	V(spikes3)	V(spikes4)	V(spikes5)	V(spikes6)	V(spikes7)	V(spikes8)
0.000000000000000e+000	2.654015e-007	2.984515e-007	3.480265e-007	4.306515e-007	2.654015e-007	2.984515e-007	3.480265e-007	4.306515e-007
1.462857101484718e-007	2.654015e-007	2.984515e-007	3.480265e-007	4.306515e-007	2.654015e-007	2.984515e-007	3.480265e-007	4.306515e-007
2.925714202969436e-007	2.654015e-007	2.984515e-007	3.480265e-007	4.306515e-007	2.654015e-007	2.984515e-007	3.480265e-007	4.306515e-007
4.388571304454154e-007	2.654015e-007	2.984515e-007	3.480265e-007	4.306515e-007	2.654015e-007	2.984515e-007	3.480265e-007	4.306515e-007
5.851428405938872e-007	2.654015e-007	2.984515e-007	3.480265e-007	4.306515e-007	2.654015e-007	2.984515e-007	3.480265e-007	4.306515e-007
7.314285507423590e-007	2.654015e-007	2.984515e-007	3.480265e-007	4.306515e-007	2.654015e-007	2.984515e-007	3.480265e-007	4.306515e-007
8.777142608908308e-007	2.654015e-007	2.984515e-007	3.480265e-007	4.306515e-007	2.654015e-007	2.984515e-007	3.480265e-007	4.306515e-007
1.023999971039302e-006	2.654015e-007	2.984515e-007	3.480265e-007	4.306515e-007	2.654015e-007	2.984515e-007	3.480265e-007	4.306515e-007
4.095999884157209e-006	2.654015e-007	2.984515e-007	3.480265e-007	4.306515e-007	2.654015e-007	2.984515e-007	3.480265e-007	4.306515e-007
1.638399953662884e-005	2.654043e-007	2.984543e-007	3.480293e-007	4.306543e-007	2.654043e-007	2.984543e-007	3.480293e-007	4.306543e-007
3.276799907325767e-005	2.654825e-007	2.985329e-007	3.481083e-007	4.307337e-007	2.654824e-007	2.985328e-007	3.481082e-007	4.307336e-007
6.553599814651534e-005	2.675881e-007	3.006565e-007	3.502529e-007	4.329032e-007	2.675840e-007	3.006523e-007	3.502487e-007	4.328990e-007
1.310719962930307e-004	3.162568e-007	3.501106e-007	4.006368e-007	4.844051e-007	3.160555e-007	3.499062e-007	4.004287e-007	4.841925e-007
2.621439925860614e-004	8.108417e-007	8.553088e-007	9.185239e-007	1.017730e-006	8.074095e-007	8.518086e-007	9.149427e-007	1.014050e-006
4.133046185002929e-004	2.707697e-006	2.803406e-006	2.928485e-006	3.103838e-006	2.686378e-006	2.781587e-006	2.906067e-006	3.080686e-006
5.669293893614326e-004	7.299412e-006	7.546143e-006	7.855350e-006	8.260029e-006	7.220187e-006	7.464780e-006	7.771401e-006	8.172892e-006
7.115663961837621e-004	1.550816e-005	1.608147e-005	1.679353e-005	1.770705e-005	1.529296e-005	1.585960e-005	1.656353e-005	1.746694e-005
8.699408664145390e-004	3.024358e-005	3.152131e-005	3.311469e-005	3.516081e-005	2.970834e-005	3.096680e-005	3.253649e-005	3.455277e-005
1.062954024244235e-003	5.757726e-005	6.043608e-005	6.404601e-005	6.874617e-005	5.623172e-005	5.903291e-005	6.257097e-005	6.717902e-005
1.349010307767789e-003	1.179918e-004	1.251832e-004	1.344836e-004	1.469620e-004	1.139040e-004	1.208746e-004	1.298923e-004	1.419966e-004
1.887450605394285e-003	2.720520e-004	2.923904e-004	3.194397e-004	3.570637e-004	2.576205e-004	2.770204e-004	3.028412e-004	3.387910e-004
2.383711420313179e-003	4.448981e-004	4.823173e-004	5.330945e-004	6.056492e-004	4.129750e-004	4.480767e-004	4.957702e-004	5.640294e-004
2.957180777388467e-003	6.674370e-004	7.294283e-004	8.152757e-004	9.414459e-004	6.018457e-004	6.585802e-004	7.373134e-004	8.533412e-004
3.622959563231187e-003	9.339784e-004	1.027534e-003	1.159496e-003	1.358689e-003	8.077266e-004	8.902677e-004	1.007070e-003	1.184133e-003
4.531121325610792e-003	1.295262e-003	1.433242e-003	1.631218e-003	1.937933e-003	1.047455e-003	1.162150e-003	1.327554e-003	1.585583e-003
5.507683825610792e-003	1.677351e-003	1.862801e-003	2.131960e-003	2.556684e-003	1.247779e-003	1.390775e-003	1.599827e-003	1.933081e-003
6.484246325610792e-003	2.059109e-003	2.291618e-003	2.631489e-003	3.174244e-003	1.388064e-003	1.551894e-003	1.793654e-003	2.185060e-003
7.460808825610792e-003	2.453635e-003	2.733950e-003	3.145460e-003	3.807558e-003	1.474334e-003	1.651904e-003	1.915657e-003	2.347422e-003
8.437371325610791e-003	2.878924e-003	3.209729e-003	3.696553e-003	4.483317e-003	1.515347e-003	1.700565e-003	1.976978e-003	2.433135e-003
9.413933825610791e-003	3.358983e-003	3.745550e-003	4.315116e-003	5.237758e-003	1.520030e-003	1.707899e-003	1.989260e-003	2.456410e-003
1.039049632561079e-002	3.928511e-003	4.379713e-003	5.044665e-003	6.122615e-003	1.496733e-003	1.683320e-003	1.963524e-003	2.430925e-003
1.136705882561079e-002	4.640218e-003	5.170278e-003	5.950958e-003	7.215702e-003	1.452870e-003	1.635215e-003	1.909626e-003	2.369031e-003
1.234362132561079e-002	5.571981e-003	6.203082e-003	7.131286e-003	8.632217e-003	1.394828e-003	1.570813e-003	1.836092e-003	2.281475e-003
1.332018382561079e-002	6.837613e-003	7.603538e-003	8.727778e-003	1.054047e-002	1.327904e-003	1.496130e-003	1.750038e-003	2.177272e-003
1.429674632561079e-002	8.617821e-003	9.570006e-003	1.096412e-002	1.320359e-002	1.256312e-003	1.415961e-003	1.657157e-003	2.063688e-003
1.527330882561079e-002	1.124490e-002	1.246513e-002	1.424595e-002	1.709306e-002	1.183240e-003	1.333947e-003	1.561794e-003	1.946309e-003
1.624987132561079e-002	1.523941e-002	1.685355e-002	1.919950e-002	2.292722e-002	1.110828e-003	1.252545e-003	1.466911e-003	1.829007e-003
1.703340900033326e-002	2.020511e-002	2.228744e-002	2.530013e-002	3.005553e-002	1.054195e-003	1.188816e-003	1.392506e-003	1.736749e-003
1.765607896081224e-002	2.634144e-002	2.896996e-002	3.275317e-002	3.867963e-002	1.010597e-003	1.139722e-003	1.335126e-003	1.665464e-003
1.815712083671248e-002	3.397442e-002	3.723413e-002	4.189711e-002	4.913668e-002	9.765815e-004	1.101401e-003	1.290308e-003	1.609720e-003
1.856561190711027e-002	4.358669e-002	4.756866e-002	5.322269e-002	6.190637e-002	9.495982e-004	1.070995e-003	1.254732e-003	1.565435e-003
1.889715995432294e-002	5.567755e-002	6.045820e-002	6.718507e-002	7.738090e-002	9.282042e-004	1.046882e-003	1.226512e-003	1.530288e-003
1.916086044601941e-002	7.060985e-002	7.621482e-002	8.401570e-002	9.565245e-002	9.115152e-004	1.028071e-003	1.204491e-003	1.502853e-003
1.936237708047342e-002	8.663036e-002	9.298266e-002	1.017266e-001	1.145609e-001	8.989350e-004	1.013889e-003	1.187888e-003	1.482164e-003
1.939314508936744e-002	8.987939e-002	9.635656e-002	1.052518e-001	1.182643e-001	8.970323e-004	1.011744e-003	1.185377e-003	1.479034e-003
1.945468110715548e-002	9.835439e-002	1.050758e-001	1.142472e-001	1.275409e-001	8.932530e-004	1.007484e-003	1.180388e-003	1.472816e-003
1.957775314273157e-002	1.218858e-001	1.288766e-001	1.382546e-001	1.515337e-001	8.857363e-004	9.990096e-004	1.170466e-003	1.460447e-003
1.970058625368344e-002	1.544967e-001	1.613134e-001	1.702491e-001	1.825177e-001	8.782757e-004	9.905983e-004	1.160617e-003	1.448169e-003
1.971801545172489e-002	1.611234e-001	1.677618e-001	1.764303e-001	1.882756e-001	8.772225e-004	9.894110e-004	1.159226e-003	1.446436e-003
1.975287384780778e-002	1.778127e-001	1.837615e-001	1.914744e-001	2.019311e-001	8.751228e-004	9.870436e-004	1.156454e-003	1.442980e-003
1.976158844682851e-002	1.827149e-001	1.883848e-001	1.957376e-001	2.057107e-001	8.745986e-004	9.864526e-004	1.155762e-003	1.442117e-003
1.977901764486995e-002	1.957464e-001	2.000353e-001	2.060071e-001	2.144272e-001	8.735518e-004	9.852723e-004	1.154380e-003	1.440394e-003
1.981387604095285e-002	2.289390e-001	2.281417e-001	2.297580e-001	2.338315e-001	8.714604e-004	9.829144e-004	1.151618e-003	1.436951e-003
1.981804498803255e-002	2.353427e-001	2.323907e-001	2.331205e-001	2.364469e-001	8.712105e-004	9.826326e-004	1.151288e-003	1.436540e-003
1.982638288219195e-002	2.571565e-001	2.450593e-001	2.410652e-001	2.422905e-001	8.707113e-004	9.820699e-004	1.150629e-003	1.435718e-003
1.983777169929736e-002	3.003187e-001	2.736462e-001	2.540808e-001	2.509980e-001	8.700299e-004	9.813015e-004	1.149730e-003	1.434596e-003
1.984981692835352e-002	3.568079e-001	3.171123e-001	2.711073e-001	2.610558e-001	8.693096e-004	9.804894e-004	1.148779e-003	1.433410e-003
1.985175282411470e-002	3.670483e-001	3.257206e-001	2.749938e-001	2.628157e-001	8.691939e-004	9.803590e-004	1.148626e-003	1.433220e-003
1.985562461563706e-002	3.892120e-001	3.450826e-001	2.862805e-001	2.666356e-001	8.689626e-004	9.800983e-004	1.148321e-003	1.432839e-003
1.986336819868179e-002	4.365190e-001	3.872636e-001	3.161496e-001	2.753041e-001	8.685002e-004	9.795768e-004	1.147710e-003	1.432078e-003
1.987687290342647e-002	5.260822e-001	4.688822e-001	3.807109e-001	2.971026e-001	8.676943e-004	9.786682e-004	1.146646e-003	1.430751e-003
1.989078423512739e-002	6.266270e-001	5.625089e-001	4.598469e-001	3.367256e-001	8.668649e-004	9.777331e-004	1.145551e-003	1.429386e-003
1.990714362793075e-002	7.542345e-001	6.840743e-001	5.680367e-001	4.104226e-001	8.658906e-004	9.766347e-004	1.144264e-003	1.427782e-003
1.992938671658266e-002	9.366102e-001	8.614878e-001	7.329797e-001	5.421395e-001	8.645678e-004	9.751430e-004	1.142517e-003	1.425603e-003
1.995346072459287e-002	1.137703e+000	1.060706e+000	9.257056e-001	7.122432e-001	8.631384e-004	9.735314e-004	1.140630e-003	1.423250e-003
1.998843729510182e-002	1.424676e+000	1.349311e+000	1.214103e+000	9.875429e-001	8.610659e-004	9.711946e-004	1.137893e-003	1.419837e-003
2.002565519240257e-002	1.708935e+000	1.638764e+000	1.510827e+000	1.288191e+000	8.588663e-004	9.687145e-004	1.134989e-003	1.416216e-003
2.007982860481704e-002	2.066878e+000	2.007348e+000	1.897138e+000	1.698752e+000	8.556757e-004	9.651170e-004	1.130775e-003	1.410962e-003
2.015204140518256e-002	2.435642e+000	2.390799e+000	2.306627e+000	2.150653e+000	8.514425e-004	9.603438e-004	1.125185e-003	1.403990e-003
2.026025240764847e-002	2.807450e+000	2.781310e+000	2.731307e+000	2.635464e+000	8.451368e-004	9.532336e-004	1.116858e-003	1.393605e-003
2.036758210388029e-002	2.980385e+000	2.973079e+000	2.975764e+000	2.927150e+000	8.389260e-004	9.462304e-004	1.108655e-003	1.383375e-003
2.048232165418083e-002	2.968542e+000	2.989665e+000	3.104462e+000	3.098089e+000	8.323265e-004	9.387887e-004	1.099939e-003	1.372503e-003
2.049589742887689e-002	2.944832e+000	2.971494e+000	3.106661e+000	3.108405e+000	8.315493e-004	9.379123e-004	1.098912e-003	1.371223e-003
2.052304897826903e-002	2.869662e+000	2.910835e+000	3.089641e+000	3.117650e+000	8.299993e-004	9.361645e-004	1.096865e-003	1.368669e-003
2.052983686561706e-002	2.849606e+000	2.894699e+000	3.081932e+000	3.118015e+000	8.296122e-004	9.357280e-004	1.096354e-003	1.368031e-003
2.054341264031313e-002	2.807091e+000	2.860571e+000	3.061642e+000	3.113135e+000	8.288390e-004	9.348561e-004	1.095332e-003	1.366757e-003
2.057056418970526e-002	2.719398e+000	2.790244e+000	3.018942e+000	3.095575e+000	8.272947e-004	9.331147e-004	1.093292e-003	1.364213e-003
2.060277760191266e-002	2.612750e+000	2.704748e+000	2.965810e+000	3.069780e+000	8.254659e-004	9.310524e-004	1.090877e-003	1.361200e-003
2.063643642154802e-002	2.500090e+000	2.614112e+000	2.908074e+000	3.039671e+000	8.235605e-004	9.289038e-004	1.088360e-003	1.358061e-003
2.070375406081875e-002	2.276782e+000	2.432433e+000	2.789933e+000	2.975253e+000	8.197641e-004	9.246228e-004	1.083345e-003	1.351805e-003
2.078892697102803e-002	2.002671e+000	2.204800e+000	2.639126e+000	2.891228e+000	8.149832e-004	9.192315e-004	1.077030e-003	1.343927e-003
2.086796111195467e-002	1.760770e+000	1.997980e+000	2.498740e+000	2.812387e+000	8.105704e-004	9.142552e-004	1.071201e-003	1.336655e-003
2.093705950931823e-002	1.562737e+000	1.822789e+000	2.375916e+000	2.743312e+000	8.067327e-004	9.099275e-004	1.066131e-003	1.330331e-003
2.100502532336059e-002	1.382367e+000	1.657391e+000	2.255092e+000	2.675349e+000	8.029772e-004	9.056924e-004	1.061170e-003	1.324142e-003
2.107826317526257e-002	1.204294e+000	1.487933e+000	2.124892e+000	2.602111e+000	7.989508e-004	9.011517e-004	1.055851e-003	1.317505e-003
2.115265302984920e-002	1.040996e+000	1.326284e+000	1.992645e+000	2.527722e+000	7.948823e-004	8.965636e-004	1.050476e-003	1.310800e-003
2.123326374978497e-002	8.842120e-001	1.164330e+000	1.849491e+000	2.447111e+000	7.904983e-004	8.916197e-004	1.044684e-003	1.303574e-003
2.132273471248576e-002	7.336386e-001	1.001459e+000	1.691693e+000	2.357641e+000	7.856625e-004	8.861661e-004	1.038296e-003	1.295603e-003
2.142737190752648e-002	5.862567e-001	8.337018e-001	1.511084e+000	2.253004e+000	7.800468e-004	8.798330e-004	1.030876e-003	1.286346e-003
2.155184821255100e-002	4.462497e-001	6.649501e-001	1.306332e+000	2.128528e+000	7.734223e-004	8.723622e-004	1.022124e-003	1.275425e-003
2.170804228229429e-002	3.141778e-001	4.951791e-001	1.070891e+000	1.972334e+000	7.651933e-004	8.630817e-004	1.011251e-003	1.261859e-003
2.189240869296759e-002	2.031423e-001	3.422056e-001	8.267615e-001	1.787968e+000	7.555883e-004	8.522495e-004	9.985609e-004	1.246023e-003
2.206004181896819e-002	1.341590e-001	2.401455e-001	6.395377e-001	1.620336e+000	7.469574e-004	8.425157e-004	9.871570e-004	1.231793e-003
2.221633565442182e-002	9.132871e-002	1.722041e-001	4.974893e-001	1.464043e+000	7.390064e-004	8.335485e-004	9.766512e-004	1.218683e-003
2.238537685929790e-002	6.018680e-002	1.196660e-001	3.747038e-001	1.295134e+000	7.305052e-004	8.239609e-004	9.654185e-004	1.204666e-003
2.254203016892301e-002	4.073787e-002	8.495340e-002	2.853129e-001	1.139779e+000	7.227161e-004	8.151763e-004	9.551265e-004	1.191823e-003
2.270331657758763e-002	2.734564e-002	5.969301e-002	2.141874e-001	9.839093e-001	7.147868e-004	8.062337e-004	9.446493e-004	1.178748e-003
2.285691021430510e-002	1.874971e-002	4.261872e-002	1.621811e-001	8.433361e-001	7.073191e-004	7.978116e-004	9.347820e-004	1.166435e-003
2.301545652807336e-002	1.279281e-002	3.015875e-002	1.213383e-001	7.098309e-001	6.996953e-004	7.892135e-004	9.247084e-004	1.153864e-003
2.316976441926223e-002	8.896248e-003	2.157943e-002	9.123327e-002	5.933508e-001	6.923561e-004	7.809364e-004	9.150111e-004	1.141763e-003
2.332839863734906e-002	6.227694e-003	1.537806e-002	6.797483e-002	4.884583e-001	6.848938e-004	7.725205e-004	9.051511e-004	1.129459e-003
2.348509898998257e-002	4.484048e-003	1.108584e-002	5.079003e-002	3.995242e-001	6.776033e-004	7.642983e-004	8.955182e-004	1.117438e-003
2.364686482026570e-002	3.315313e-003	8.012908e-003	3.762989e-002	3.222238e-001	6.701606e-004	7.559045e-004	8.856843e-004	1.105167e-003
2.381021961047372e-002	2.568562e-003	5.886517e-003	2.785123e-002	2.576717e-001	6.627297e-004	7.475241e-004	8.758660e-004	1.092915e-003
2.398213433076588e-002	2.096424e-003	4.388356e-003	2.038447e-002	2.025785e-001	6.550005e-004	7.388073e-004	8.656539e-004	1.080172e-003
2.416229839020778e-002	1.825989e-003	3.371911e-003	1.480445e-002	1.567070e-001	6.469989e-004	7.297834e-004	8.550821e-004	1.066981e-003
2.435603303730599e-002	1.699114e-003	2.701569e-003	1.062144e-002	1.183564e-001	6.385040e-004	7.202033e-004	8.438588e-004	1.052977e-003
2.455459351881364e-002	1.681639e-003	2.317278e-003	7.715309e-003	8.850121e-002	6.299145e-004	7.105165e-004	8.325106e-004	1.038817e-003
2.477137977026355e-002	1.743528e-003	2.123355e-003	5.631632e-003	6.425239e-002	6.206670e-004	7.000877e-004	8.202935e-004	1.023574e-003
2.498402523904535e-002	1.855764e-003	2.080048e-003	4.336522e-003	4.686452e-002	6.117266e-004	6.900054e-004	8.084824e-004	1.008837e-003
2.520911457985385e-002	2.011109e-003	2.137982e-003	3.518418e-003	3.367513e-002	6.024036e-004	6.794918e-004	7.961663e-004	9.934717e-004
2.544019005977560e-002	2.196693e-003	2.267840e-003	3.063946e-003	2.414280e-002	5.929805e-004	6.688654e-004	7.837183e-004	9.779419e-004
2.569692954775001e-002	2.425558e-003	2.466433e-003	2.853749e-003	1.689142e-002	5.826806e-004	6.572504e-004	7.701126e-004	9.609686e-004
2.596197711506223e-002	2.682054e-003	2.711623e-003	2.840281e-003	1.189354e-002	5.722255e-004	6.454606e-004	7.563025e-004	9.437409e-004
2.622438085841967e-002	2.955558e-003	2.985549e-003	2.962264e-003	8.694677e-003	5.620529e-004	6.339894e-004	7.428658e-004	9.269799e-004
2.648879553191354e-002	3.252108e-003	3.288757e-003	3.176186e-003	6.674573e-003	5.519803e-004	6.226312e-004	7.295619e-004	9.103853e-004
2.676158062550518e-002	3.582895e-003	3.629319e-003	3.463211e-003	5.432884e-003	5.417721e-004	6.111203e-004	7.160795e-004	8.935688e-004
2.705048310131699e-002	3.965634e-003	4.023054e-003	3.822837e-003	4.732943e-003	5.311591e-004	5.991530e-004	7.020629e-004	8.760869e-004
2.736342781389996e-002	4.425970e-003	4.494145e-003	4.267840e-003	4.440852e-003	5.198880e-004	5.864439e-004	6.871779e-004	8.575229e-004
2.771417190360698e-002	5.012124e-003	5.089796e-003	4.834869e-003	4.485524e-003	5.075284e-004	5.725079e-004	6.708562e-004	8.371682e-004
2.812529709343507e-002	5.820011e-003	5.904919e-003	5.606006e-003	4.861846e-003	4.934036e-004	5.565815e-004	6.522042e-004	8.139090e-004
2.864560472454898e-002	7.094599e-003	7.180592e-003	6.796733e-003	5.682533e-003	4.760771e-004	5.370455e-004	6.293257e-004	7.853814e-004
2.935074929631725e-002	9.502376e-003	9.557427e-003	8.964228e-003	7.320870e-003	4.535278e-004	5.116214e-004	5.995529e-004	7.482602e-004
3.032731179631725e-002	1.462229e-002	1.449939e-002	1.331212e-002	1.057139e-002	4.237298e-004	4.780253e-004	5.602121e-004	6.992142e-004
3.116766039704156e-002	2.191136e-002	2.129847e-002	1.899025e-002	1.458419e-002	3.992996e-004	4.504820e-004	5.279605e-004	6.590101e-004
3.179942570293369e-002	3.122905e-002	2.960034e-002	2.547848e-002	1.883509e-002	3.817310e-004	4.306750e-004	5.047686e-004	6.301020e-004
3.225261473715770e-002	4.233469e-002	3.895135e-002	3.224804e-002	2.291775e-002	3.695510e-004	4.169432e-004	4.886906e-004	6.100621e-004
3.257396676996489e-002	5.486719e-002	4.883872e-002	3.884225e-002	2.658061e-002	3.611242e-004	4.074429e-004	4.775672e-004	5.961982e-004
3.280009804243515e-002	6.792032e-002	5.848366e-002	4.479638e-002	2.965689e-002	3.552939e-004	4.008700e-004	4.698713e-004	5.866064e-004
3.292688283632901e-002	7.896435e-002	6.589951e-002	4.896813e-002	3.165702e-002	3.520664e-004	3.972312e-004	4.656110e-004	5.812966e-004
3.310246940494988e-002	1.015282e-001	7.948444e-002	5.593392e-002	3.477755e-002	3.476392e-004	3.922401e-004	4.597672e-004	5.740133e-004
3.321794299204379e-002	1.218005e-001	9.054938e-002	6.118917e-002	3.701125e-002	3.447467e-004	3.889791e-004	4.559491e-004	5.692548e-004
3.323618340968768e-002	1.260710e-001	9.265437e-002	6.212050e-002	3.738947e-002	3.442922e-004	3.884667e-004	4.553492e-004	5.685071e-004
3.327266424497544e-002	1.373228e-001	9.754835e-002	6.415091e-002	3.818458e-002	3.433864e-004	3.874455e-004	4.541535e-004	5.670169e-004
3.334562591555098e-002	1.646579e-001	1.083130e-001	6.842529e-002	3.982096e-002	3.415784e-004	3.854072e-004	4.517670e-004	5.640425e-004
3.335539549092630e-002	1.692564e-001	1.099129e-001	6.903021e-002	4.004691e-002	3.413368e-004	3.851348e-004	4.514481e-004	5.636452e-004
3.337493464167695e-002	1.816037e-001	1.134761e-001	7.030905e-002	4.051282e-002	3.408546e-004	3.845913e-004	4.508116e-004	5.628520e-004
3.341401294317824e-002	2.208642e-001	1.211600e-001	7.296074e-002	4.146272e-002	3.398915e-004	3.835055e-004	4.495404e-004	5.612675e-004
3.343437670948838e-002	2.691122e-001	1.255657e-001	7.440539e-002	4.196947e-002	3.393904e-004	3.829405e-004	4.488789e-004	5.604432e-004
3.345919414362240e-002	3.779496e-001	1.315217e-001	7.625052e-002	4.260242e-002	3.387808e-004	3.822532e-004	4.480742e-004	5.594402e-004
3.348298926776438e-002	5.243258e-001	1.379274e-001	7.810570e-002	4.322416e-002	3.381970e-004	3.815951e-004	4.473037e-004	5.584800e-004
3.351821405792368e-002	7.872258e-001	1.489887e-001	8.101773e-002	4.417194e-002	3.373346e-004	3.806228e-004	4.461653e-004	5.570612e-004
3.355890265806120e-002	1.116540e+000	1.652139e-001	8.464620e-002	4.530775e-002	3.363406e-004	3.795022e-004	4.448533e-004	5.554259e-004
3.361221035815739e-002	1.550046e+000	1.929803e-001	8.978107e-002	4.685199e-002	3.350413e-004	3.780375e-004	4.431383e-004	5.532886e-004
3.363649813862481e-002	1.739431e+000	2.092740e-001	9.227630e-002	4.757738e-002	3.344505e-004	3.773713e-004	4.423583e-004	5.523165e-004
3.364257008374166e-002	1.784236e+000	2.144806e-001	9.293304e-002	4.776314e-002	3.343030e-004	3.772051e-004	4.421636e-004	5.520739e-004
