time,VIN,VOUT
0.0,0.0,3.805741260430082e-09
9.999999717180685e-10,1.256637025895794e-08,3.805741271436205e-09
1.999999943436137e-09,2.513274051791588e-08,3.805741324950543e-09
3.999999886872274e-09,5.026548103583174e-08,3.805741324943923e-09
7.999999773744548e-09,1.005309620716634e-07,3.805741265658969e-09
1.59999995474891e-08,2.010619241433257e-07,3.80574127039029e-09
3.199999909497819e-08,4.021238482866432e-07,3.805741294175579e-09
6.399999818995639e-08,8.042476965732215e-07,3.805741293689789e-09
1.279999963799128e-07,1.608495393145923e-06,3.805741234065051e-09
2.559999927598256e-07,3.216990786287684e-06,3.805741291669942e-09
5.119999855196511e-07,6.433981572542075e-06,3.805741312299486e-09
1.023999971039302e-06,1.286796314481781e-05,3.805741350137486e-09
2.047999942078604e-06,2.573592628750488e-05,3.805741788913721e-09
4.095999884157209e-06,5.147185255796389e-05,3.805751990433698e-09
8.191999768314417e-06,0.0001029437049795607,3.805798845954968e-09
1.638399953662884e-05,0.0002058874088681852,3.805890808065975e-09
3.276799907325767e-05,0.0004117748090088802,3.80606871762457e-09
6.553599814651534e-05,0.0008235495481978412,3.806430710811354e-09
0.0001310719962930307,0.0016470985378364,3.807149626815875e-09
0.0002621439925860614,0.003294192607200815,3.808604206624077e-09
0.000426446837934384,0.005358863363688328,3.810415699683408e-09
0.0005931738468920641,0.007453973371135922,3.812271913071539e-09
0.0007615444794808685,0.009569704098090255,3.81413772412762e-09
0.0009586653492066389,0.01204665268217616,3.816338372230082e-09
0.001253359128249022,0.0157495241407365,3.819626749485618e-09
0.001612212847065357,0.02025827823056235,3.823660347684109e-09
0.00201957995531978,0.02537606595042417,3.828261456070087e-09
0.002453876385545856,0.0308314334019248,3.833216191013838e-09
0.002999427536213815,0.03768299398824496,3.839501476391827e-09
0.003717802583362899,0.04670229135637867,3.847941517789966e-09
0.004694365083362899,0.05895692298945932,3.859761913295821e-09
0.005670927583362899,0.07120267592679835,3.872087056123613e-09
0.006647490083362899,0.08343770600304684,3.884979029254106e-09
0.007624052583362899,0.09566017066767928,3.898500749006943e-09
0.008600615083362899,0.1078682292624749,3.912661064521869e-09
0.009577177583362899,0.1200600432987142,3.927491086309371e-09
0.0105537400833629,0.1322337767340482,3.942983588815371e-09
0.0115303025833629,0.1443875962490001,3.959162273073518e-09
0.0125068650833629,0.1565196715230562,3.976020764407822e-09
0.0134834275833629,0.1686281755103056,3.993582417666309e-09
0.0144599900833629,0.1807112847145863,4.011848833420604e-09
0.0154365525833629,0.1927671794640973,4.030849749851638e-09
0.0164131150833629,0.2047940441854344,4.050592546962915e-09
0.0173896775833629,0.2167900676770089,4.071122803067288e-09
0.0183662400833629,0.2287534433818078,4.092447845965428e-09
0.0193428025833629,0.2406823696594547,4.114626155701709e-09
0.0203193650833629,0.2525750500575302,4.137681591110088e-09
0.0212959275833629,0.264429693582111,4.161675944636354e-09
0.0222724900833629,0.2762445149674873,4.186650415779585e-09
0.0232490525833629,0.2880177349450167,4.21267964260095e-09
0.0242256150833629,0.2997475805110758,4.239817988796277e-09
0.0252021775833629,0.3114322851940681,4.268158147380692e-09
0.0261787400833629,0.3230700893204483,4.297769914336932e-09
0.0271553025833629,0.334659240279722,4.328767275878234e-09
0.0281318650833629,0.346197992788383,4.361243739284648e-09
0.0291084275833629,0.3576846091527463,4.395333357733242e-09
0.0300849900833629,0.3691173595306386,4.431106067010653e-09
0.0310615525833629,0.380494522191906,4.468827658139051e-09
0.0320381150833629,0.3918143837777001,4.508609560121558e-09
0.0330146775833629,0.4030752395585039,4.550657834408062e-09
0.0339912400833629,0.4142753936908574,4.595178764289657e-09
0.0349678025833629,0.4254131594727457,4.642430805587808e-09
0.0359443650833629,0.43648685959761,4.692682440643265e-09
0.0369209275833629,0.4474948264069438,4.746265143669124e-09
0.0378974900833629,0.458435402141436,4.803533807561487e-09
0.0388740525833629,0.4693069391906236,4.864923207870913e-09
0.0398506150833629,0.4801078003410157,4.930914551292053e-09
0.0408271775833629,0.4908363590226518,5.002088621352638e-09
0.0418037400833629,0.5014909995540571,5.079116749624642e-09
0.0427803025833629,0.5120701173855583,5.162816198211062e-09
0.0437568650833629,0.5225721193409232,5.254153162985663e-09
0.0447334275833629,0.5329954238572868,5.354341126112993e-09
0.0457099900833629,0.5433384612233286,5.464873037429752e-09
0.0466865525833629,0.5535996738156661,5.587688500922785e-09
0.0476631150833629,0.5637775163334268,5.725336436675164e-09
0.0486396775833629,0.5738704560309641,5.881325555700731e-09
0.0496162400833629,0.5838769729486848,6.060618558115094e-09
0.0505928025833629,0.5937955601419476,6.27053808033787e-09
0.0515693650833629,0.6036247239080047,6.52227860635196e-09
0.0525459275833629,0.6133629840109476,6.833902625093154e-09
0.0535224900833629,0.6230088739046247,7.236526629651705e-09
0.0544990525833629,0.6325609409534985,7.79024088297717e-09
0.05533753547900489,0.6406864517971278,8.476771939933686e-09
0.05595593397803438,0.6466336598720615,9.206760943669982e-09
0.05640969807342235,0.6509727413664393,9.957297765499599e-09
0.05675286930090871,0.6542402385660349,1.073187486441463e-08
0.05701597847864984,0.6567371897705576,1.153020191336615e-08
0.05721742719212113,0.6586441213158517,1.234127662333621e-08
0.05736507222823476,0.660039062717237,1.311689574279709e-08
0.05749462416074141,0.6612611902200421,1.401141828288358e-08
0.05751973921102536,0.6614979102087241,1.422542126904357e-08
0.05756996931159326,0.6619711524939733,1.468703068863852e-08
0.05767042951272905,0.6629168456362186,1.591233357691667e-08
0.05774715077605548,0.6636383582459082,1.739261320352555e-08
0.05775868270293423,0.6637467550603164,1.770337022519448e-08
0.05778174655669174,0.6639635068704078,1.842820684936664e-08
0.05779778062426042,0.664114160583391,1.910462592265209e-08
0.05780178914115259,0.6641518197990848,1.932087390960541e-08
0.05780980617493693,0.6642271331747408,1.991406712378561e-08
0.0578241088768332,0.6643614784404248,2.200623748437591e-08
0.05784193257505391,0.6645288663840023,2.653962672076671e-08
0.0578613935201263,0.6647115921550033,3.429194754160519e-08
0.05788632521754007,0.6649456266862356,4.952547971505882e-08
0.05791244988682096,0.6651907896481117,7.21652604676977e-08
0.05794302445819763,0.6654776209848166,1.062528394699631e-07
0.05797872220961418,0.665812390453852,1.535804843580533e-07
0.05802408846686528,0.6662376367351054,2.283611725288676e-07
0.05807067119124591,0.6666740604064164,3.601943521517363e-07
0.05812381501078906,0.6671716746031024,7.043825520530572e-07
0.05817977361935189,0.6676953235713878,1.541101741404184e-06
0.05823387878032685,0.6682013144238454,2.944794518331688e-06
0.05829708588505395,0.6687920353277802,5.650835186449351e-06
0.05835633333404795,0.6693453669800148,1.145128797378271e-05
0.05840168053417176,0.6697686289276545,2.094772774652045e-05
0.05844343396026951,0.6701581549690623,3.589448304996027e-05
0.0584868442593472,0.6705629426869826,5.872496556812879e-05
0.05853424166938658,0.6710046811067121,9.194015185222546e-05
0.05857477349211469,0.6713822442283958,0.000126541079665008
0.05862061500314568,0.6718090584026426,0.0001718494559128618
0.05871229802520766,0.6726620177966212,0.0002791820574828424
0.05879666891734309,0.6734461609958268,0.0003936581279460616
0.0588732010097246,0.6741567956145311,0.0005066026324663001
0.05895805867203602,0.6749440078528205,0.0006380887221521279
0.05904167434574199,0.6757189476299407,0.0007710590620112111
0.05913991522061676,0.6766284787240838,0.0009286991810577783
0.05924462622525754,0.6775967760321827,0.00109599680561123
0.05937638043089162,0.678813483727927,0.001303809716939132
0.05953160843008995,0.6802445764809317,0.001544629751116246
0.05974259773678111,0.6821855980901042,0.001866438688039149
0.05992029127237963,0.6838165916498591,0.002132865769784386
0.06007660891459648,0.685248563798148,0.00236373870787318
0.06023624726897832,0.6867082268202988,0.002596082509913012
0.06040528527928919,0.6882508236296027,0.002838308172277447
0.06056383592755875,0.6896948931428436,0.003061907236707942
0.06072393864568611,0.6911503205915775,0.003284141940604809
0.06087835644484104,0.6925514184824758,0.003495061315993436
0.06103617372675849,0.6939806667778226,0.003707128645527596
0.0611912688817841,0.6953826033320162,0.003912056503723672
0.06134951782123985,0.6968103249967883,0.004117568806570258
0.06150691593029676,0.6982276370671897,0.004318348712949291
0.0616685963865513,0.6996806659666583,0.004520793685116138
0.06183276447979764,0.701153096082015,0.004722376118227967
0.0620049615140171,0.7026943314188635,0.004929470153453615
0.06218614399291929,0.7043124377688872,0.005142516413366687
0.06238422294285304,0.7060772653501389,0.005369672187782543
0.062604530299066,0.7080350026428722,0.005615172624528044
0.06286069386813493,0.7103045478843216,0.00589103627234162
0.06317288945387875,0.7130605691004697,0.006213081194371931
0.06357166230632916,0.7165649151034034,0.006601370708773046
0.06410871542599592,0.7212559926499925,0.007082422177311836
0.06489516388882584,0.728066166284775,0.007697234530583841
0.06587172638882584,0.7364235679406068,0.008305814167140857
0.06684828888882584,0.7446700669158856,0.008735442025349186
0.06782485138882584,0.7528044213181985,0.008980000369622107
0.06880141388882584,0.7608254061436931,0.009038165434266098
0.06977797638882584,0.7687318134615584,0.008915134154674376
0.07075453888882584,0.7765224525959342,0.008622311845733605
0.07173110138882584,0.784196150305223,0.008181066134673884
0.07270766388882584,0.7917517509587761,0.007620382210602166
0.07368422638882584,0.7991881167109266,0.006975913923429491
0.07431178132653564,0.803903394323289,0.006535090526476307
0.07468795165071344,0.8067058890306993,0.006265956266915377
0.07473740300983907,0.8070729657692389,0.006230455236260912
0.0748363057280903,0.8078061841076506,0.006159398388077273
0.07503411116459278,0.8092688762682979,0.006017242199138617
0.07529281906350739,0.8111743699074563,0.005831635487172693
0.07545318891998924,0.812351258860723,0.005716988553870431
0.07547415287937725,0.8125048610794432,0.005702038334365814
0.07551608079815328,0.8128118963400376,0.005672155523896433
0.07559993663570533,0.8134252898556041,0.005612501250024208
0.07560972274674595,0.8134968150223377,0.00560555036919416
0.07562929496882718,0.813639828447012,0.005591653864804706
0.07566843941298967,0.8139257076309131,0.005563889365075112
0.07567312796781482,0.8139599358161854,0.005560566517994814
0.07568250507746511,0.8140283837100052,0.005553922106887081
0.0757012592967657,0.8141652455874184,0.005540824052110741
0.07572355841170253,0.8143279180510993,0.005527394880239327
0.07574742426108094,0.8145019490317408,0.005521423367614829
0.07578534228553961,0.8147782985157751,0.005557580201436416
0.07583156845666077,0.8151149481755887,0.005742673120180451
0.07588736171739313,0.8155209053908665,0.006298169538554553
0.07595982042301051,0.8160475235982305,0.007758715046149284
0.07606718989059225,0.81682662340775,0.0114791440743397
0.0761865986231966,0.8176913366311308,0.0164066026968404
0.07629553885064412,0.8184786348419056,0.02006628295642245
0.07631425132791331,0.8186137133868454,0.02057789792932182
0.07631892944723061,0.8186474759507356,0.02070292752073099
0.0763282856858652,0.8187149925908853,0.02094663876680829
0.07633062474552384,0.8187318699825812,0.02100560256738304
0.07633530286484114,0.8187656226438613,0.02112283228036887
0.07634465910347572,0.8188331194775662,0.02135169458707044
0.07636337158074491,0.8189680791862887,0.02178333777113347
0.0763904763485471,0.8191634861765709,0.022347006552171
0.07641977829951956,0.8193746264639821,0.02288204778602518
0.07647610958222545,0.8197802191834223,0.02373754590751113
0.0765733254544489,0.8204792200656932,0.02484753309457611
0.07664960885890164,0.8210268551144483,0.02551294181297814
0.07672174920006912,0.8215440532004405,0.02604116026145134
0.07680794288703546,0.8221611190989331,0.02658138201217276
0.07688987533841629,0.8227467843547392,0.02703264996559887
0.07698587053234443,0.8234318625698832,0.02751130973748165
0.07708528867271074,0.8241401058350056,0.02797005445877854
0.07721093542459109,0.8250333584028606,0.02852112523689163
0.07735525498203982,0.826056822214529,0.02913878304586062
0.07755224885790915,0.8274494478409831,0.02997348289468606
0.07773187768128714,0.8287148935264638,0.03072714819369231
0.07789099579610592,0.8298323190986693,0.0313885602141009
0.0780479669602199,0.8309314165334155,0.03203549717895327
0.07821956339802578,0.8321292195880321,0.03273612743521173
0.07838073840244729,0.8332507535970113,0.03338808895249944
0.07854162732257355,0.8343668878439986,0.03403275375375981
0.07869627108780639,0.8354364830773607,0.0346467406113055
0.0788540001733974,0.8365241678984549,0.0352670525584452
0.07900920246249611,0.8375912203333946,0.03587170320398916
0.07916730579640668,0.8386749422092145,0.03648161638352036
0.07932449404791023,0.8397491098186658,0.0370820560295945
0.07948559430714133,0.8408466108135157,0.03769109838786003
0.07964896793771772,0.8419560798108885,0.03830226188280194
0.07981983588870716,0.8431126459549525,0.03893429560356462
0.07999919378408038,0.8443224968859497,0.03958991027850436
0.08019457404904654,0.8456355448364815,0.04029476035391787
0.08041126243531235,0.8470858313147083,0.04106510784434943
0.08066236809388369,0.8487586139934666,0.04194254495870015
0.08096794064487396,0.8507828357748343,0.04298802053684385
0.08135775457311234,0.8533468893565528,0.04428544447877892
0.08188310395118512,0.8567700406420747,0.04596830755741126
0.08265679444013745,0.8617433387159981,0.04830472358523591
0.08363335694013745,0.8679043481990364,0.05100123435289761
0.08460991944013745,0.873934654479639,0.05339894049400549
0.08558648194013745,0.8798333494158613,0.05547781100772169
0.08656304444013745,0.885599544685943,0.05721519675621611
0.08753960694013745,0.8912323719220862,0.05858515364981737
0.08851616944013745,0.8967309828412281,0.05956169768908349
0.08929474500133623,0.9010181006677226,0.06003845258171906
0.0898256816145168,0.9038921917160373,0.06020152959826926
0.09018123509916268,0.9057944034906211,0.06023463496123883
0.09042167281587044,0.9070704994917447,0.06022157035237939
0.09060499936983386,0.9080379211589482,0.06019215734269401
0.09075484456315593,0.9088250812054298,0.06015542913154572
0.09078465940511393,0.9089813189102898,0.0601467181594729
0.09084428908902994,0.9092934115077654,0.06012805053544965
0.09096354845686196,0.9099160648407836,0.06008514781617419
0.09107029275312949,0.9104716437985123,0.06004058296254254
0.09108609938663921,0.9105537743771731,0.06003344793301739
0.09111771265365864,0.9107179277544398,0.06001886363549901
0.0911256159704135,0.9107589436422171,0.06001512236532521
0.09114142260392323,0.9108409484670918,0.06000756908589586
0.09114537426230065,0.9108614440582907,0.06000565601054108
0.09115327757905552,0.9109024285023108,0.06000181351831378
0.09116424486709931,0.9109592869803218,0.05999642545796425
0.09117672187431654,0.9110239513613684,0.05999022003474529
0.09119812233551065,0.9111348110304595,0.05997938821191454
0.09121961064538718,0.9112460594766716,0.05996946332826299
0.09125426139704568,0.9114253120437892,0.05998462987531207
0.09129919395487573,0.9116574963119342,0.06018462187693411
0.09135139610800339,0.9119268804516092,0.06090384973636854
0.09141778083058211,0.9122688855157356,0.06282984897381359
0.09151174721103357,0.9127519021565363,0.06721730557474735
0.09160881230971632,0.9132495108523044,0.0725701519084496
0.09172697663020403,0.9138534517435054,0.07849094803181426
0.09174158612229491,0.913927981298383,0.0791423552400301
0.09177080510647667,0.9140769479947289,0.08038619099393994
0.09177810985252212,0.9141141704141913,0.08068141797167246
0.091792719344613,0.9141885921453713,0.08126161217122614
0.09182193832879476,0.9143373431679743,0.08235882493661098
0.09188037629715828,0.9146344753839843,0.08428356976772189
0.09193240193873556,0.9148985886256026,0.08569358197367555
0.09198079050134421,0.9151438868889141,0.08678123896605677
0.09203229138080599,0.9154045908366774,0.08775388996399357
0.09211568784504871,0.9158259410914296,0.08903222321188434
0.09219934654512527,0.9162476056727336,0.09005563936076519
0.0922775860532382,0.9166410395638434,0.09085702255214076
0.09236121239889666,0.9170605819201121,0.09159296689274228
0.09244914674355972,0.9175006445755431,0.09228185829331793
0.09255114180411783,0.9180096699301797,0.09301255155139031
0.09266529651751024,0.9185775917726249,0.09378967314740001
0.09280707822148648,0.9192803264513317,0.09473548838146566
0.09298354675584503,0.9201509082311796,0.09590552531568448
0.09317793798249809,0.9211046712006277,0.09718261051128393
0.09334609225517312,0.921925271407631,0.09827891548917722
0.09350276136430427,0.9226861192053251,0.09929181611943115
0.09367702111293622,0.9235281928295094,0.1004103990025129
0.09383735262659602,0.9242990495100684,0.1014306419756664
0.0939996615458086,0.925075591572123,0.1024559801329221
0.09415373630655845,0.9258091781083357,0.1034211243099208
0.0943123493616774,0.9265607470719501,0.10440743813603
0.09446698942739551,0.927289946629481,0.1053609190858291
0.09462554409889624,0.928033969554171,0.1063310660771296
0.0947821243334384,0.9287651117271556,0.1072808577663987
0.09494327152621823,0.9295138243336682,0.1082504375543488
0.09510577778038093,0.9302649912474197,0.1092193755453544
0.09527608902133118,0.931048072405827,0.110225847784687
0.09545392338594906,0.931861193062711,0.1112663846443818
0.09564772960331273,0.9327420429957605,0.1123886239060819
0.09586160769396221,0.9337076978823603,0.1136123730452066
0.09610939265026382,0.9348180077085679,0.1150109641728315
0.09640960632871023,0.9361511035353488,0.1166773314679787
0.09679287554818274,0.9378336413989282,0.1187595159579069
0.09712300970130927,0.9392654799436925,0.1205116440396396
0.0973628190219847,0.9402954321017998,0.1217600888117118
0.09739980002650467,0.9404535013500948,0.1219506432481069
0.09747376203554463,0.9407690305062335,0.1223305209342529
0.09762168605362455,0.9413976505036346,0.1230843147426568
0.09777338625011134,0.9420389392686682,0.1238490524740217
0.09779451923397972,0.9421280040202341,0.1239548708322846
0.09783678520171649,0.9423059341871491,0.1241661128510364
0.09788146386568466,0.942493732240793,0.1243886785773284
0.09789200709628168,0.9425380053308853,0.1244410849800203
0.09791309355747572,0.9426265018753802,0.1245457970961127
0.09791836517277423,0.9426486156701689,0.1245719430596313
0.09792890840337125,0.9426928308494646,0.1246242150646247
0.0979315442110205,0.9427038820587426,0.1246372753774802
0.09793681582631901,0.9427259813745583,0.1246633907611371
0.09793813373014364,0.9427315055570991,0.1246699176459251
0.09794076953779289,0.9427425531464747,0.1246829701211072
0.0979460411530914,0.9427646452223583,0.1247090673217735
0.09795470845162939,0.9428009587995393,0.1247519527913285
0.09796901455282817,0.9428608729302365,0.1248226790586366
0.09798409001458065,0.9429239761776622,0.1248971281255192
0.09800726831384005,0.9430209304736923,0.1250114316930162
0.0980328149449238,0.9431276987651752,0.1251371897652928
0.09806114850171525,0.943246000910176,0.1252763915886879
0.09809298601674812,0.9433787905876189,0.1254324615705337
0.09813289286438258,0.943545023022688,0.1256275704032917
0.0981826761318377,0.9437520631493567,0.1258701808568537
0.09823446653754715,0.9439670586280586,0.1261217577637805
0.0982944210748519,0.9442154461997294,0.1264122960796403
0.09835175040289199,0.9444524564349577,0.1266900923128309
0.09840749615280239,0.9446824498063714,0.1269613432086525
0.09849333255030565,0.9450356833385977,0.127392190092434
0.09857638680886703,0.9453764211706668,0.1278541430890246
0.09858607682968949,0.9454161083087566,0.1279127576851679
0.09860545687133442,0.9454954405297582,0.1280322999799884
0.09864421695462428,0.9456539367345859,0.128282339185632
0.09868360109238687,0.945814755003375,0.1285484730581119
