time,V(spikes1),V(spikes2),V(spikes3),V(spikes4),V(spikes5),V(spikes6),V(spikes7),V(spikes8)
0.000000000000000e+000,2.654015e-007,2.654015e-007,2.654015e-007,2.654015e-007,2.654015e-007,2.654015e-007,2.654015e-007,2.654015e-007
2.340571362375549e-006,2.654015e-007,2.654015e-007,2.654015e-007,2.654015e-007,2.654012e-007,2.654012e-007,2.654012e-007,2.654012e-007
4.681142724751098e-006,2.654015e-007,2.654015e-007,2.654015e-007,2.654015e-007,2.654013e-007,2.654013e-007,2.654013e-007,2.654013e-007
7.021714087126647e-006,2.654015e-007,2.654015e-007,2.654015e-007,2.654015e-007,2.654017e-007,2.654017e-007,2.654017e-007,2.654017e-007
9.362285449502195e-006,2.654015e-007,2.654015e-007,2.654015e-007,2.654015e-007,2.654026e-007,2.654026e-007,2.654026e-007,2.654026e-007
1.170285681187774e-005,2.654015e-007,2.654015e-007,2.654015e-007,2.654015e-007,2.654038e-007,2.654038e-007,2.654038e-007,2.654038e-007
1.404342817425329e-005,2.654015e-007,2.654015e-007,2.654015e-007,2.654015e-007,2.654054e-007,2.654054e-007,2.654054e-007,2.654054e-007
1.638399953662884e-005,2.654015e-007,2.654015e-007,2.654015e-007,2.654015e-007,2.654074e-007,2.654074e-007,2.654074e-007,2.654074e-007
3.276799907325767e-005,2.654015e-007,2.654015e-007,2.654015e-007,2.654015e-007,2.655721e-007,2.655726e-007,2.655730e-007,2.655734e-007
6.553599814651534e-005,2.654015e-007,2.654015e-007,2.654015e-007,2.654015e-007,2.700077e-007,2.700305e-007,2.700535e-007,2.700766e-007
1.310719962930307e-004,2.654015e-007,2.654015e-007,2.654015e-007,2.654015e-007,3.726452e-007,3.737026e-007,3.747714e-007,3.758517e-007
2.621439925860614e-004,2.654015e-007,2.654015e-007,2.654015e-007,2.654015e-007,1.226580e-006,1.239645e-006,1.252916e-006,1.266397e-006
3.759287716207525e-004,2.654015e-007,2.654015e-007,2.654015e-007,2.654015e-007,3.492674e-006,3.548358e-006,3.605175e-006,3.663154e-006
4.911693759441033e-004,2.654015e-007,2.654015e-007,2.654015e-007,2.654015e-007,8.610061e-006,8.784737e-006,8.963705e-006,9.147089e-006
6.076296293075123e-004,2.654015e-007,2.654015e-007,2.654015e-007,2.654015e-007,1.693625e-005,1.733063e-005,1.773581e-005,1.815212e-005
6.699198287047357e-004,2.654015e-007,2.654015e-007,2.654015e-007,2.654015e-007,2.453122e-005,2.516814e-005,2.582452e-005,2.650103e-005
7.465900326556869e-004,2.654015e-007,2.654015e-007,2.654015e-007,2.654015e-007,3.719822e-005,3.830795e-005,3.945712e-005,4.064737e-005
8.999304405575891e-004,2.654015e-007,2.654015e-007,2.654015e-007,2.654015e-007,7.268260e-005,7.538415e-005,7.820723e-005,8.115826e-005
1.102474765261411e-003,2.654015e-007,2.654015e-007,2.654015e-007,2.654015e-007,1.416062e-004,1.482274e-004,1.552318e-004,1.626461e-004
1.396819314973578e-003,2.654015e-007,2.654015e-007,2.654015e-007,2.654015e-007,2.896503e-004,3.074459e-004,3.266420e-004,3.473758e-004
1.814000767482979e-003,2.654015e-007,2.654015e-007,2.654015e-007,2.654015e-007,5.952612e-004,6.463773e-004,7.035703e-004,7.678284e-004
2.494949715975681e-003,2.654015e-007,2.654015e-007,2.654015e-007,2.654015e-007,1.288750e-003,1.453368e-003,1.649550e-003,1.885581e-003
3.280933553826104e-003,2.654015e-007,2.654015e-007,2.654015e-007,2.654015e-007,2.348248e-003,2.778246e-003,3.327538e-003,4.036648e-003
4.016551444782281e-003,2.654015e-007,2.654015e-007,2.654015e-007,2.654015e-007,3.647247e-003,4.568259e-003,5.823236e-003,7.552953e-003
4.695593879624844e-003,2.654015e-007,2.654015e-007,2.654015e-007,2.654015e-007,5.207122e-003,6.935014e-003,9.428324e-003,1.309371e-002
5.174805011420446e-003,2.654015e-007,2.654015e-007,2.654015e-007,2.654015e-007,6.620732e-003,9.257337e-003,1.324442e-002,1.947320e-002
5.521590426814149e-003,2.654015e-007,2.654015e-007,2.654015e-007,2.654015e-007,7.898437e-003,1.149362e-002,1.718219e-002,2.667369e-002
5.808116813160581e-003,2.654015e-007,2.654015e-007,2.654015e-007,2.654015e-007,9.168942e-003,1.384072e-002,2.160706e-002,3.564184e-002
6.056957274236703e-003,2.654015e-007,2.654015e-007,2.654015e-007,2.654015e-007,1.046246e-002,1.635501e-002,2.669877e-002,4.735208e-002
6.271673269661202e-003,2.654015e-007,2.654015e-007,2.654015e-007,2.654015e-007,1.174721e-002,1.897851e-002,3.242996e-002,6.281237e-002
6.449066551292718e-003,2.654015e-007,2.654015e-007,2.654015e-007,2.654015e-007,1.294636e-002,2.154332e-002,3.848048e-002,8.265018e-002
6.582551642241174e-003,2.654015e-007,2.654015e-007,2.654015e-007,2.654015e-007,1.393133e-002,2.372436e-002,4.394175e-002,1.037266e-001
6.601478052287210e-003,2.654015e-007,2.654015e-007,2.654015e-007,2.654015e-007,1.407991e-002,2.406210e-002,4.482901e-002,1.077257e-001
6.639330872379282e-003,2.654015e-007,2.654015e-007,2.654015e-007,2.654015e-007,1.439076e-002,2.478319e-002,4.680001e-002,1.182316e-001
6.715036512563426e-003,2.654015e-007,2.654015e-007,2.654015e-007,2.654015e-007,1.503335e-002,2.629803e-002,5.108443e-002,1.464728e-001
6.773334994101250e-003,2.654015e-007,2.654015e-007,2.654015e-007,2.654015e-007,1.554453e-002,2.752228e-002,5.466536e-002,1.761131e-001
6.782625706518924e-003,2.654015e-007,2.654015e-007,2.654015e-007,2.654015e-007,1.562843e-002,2.772615e-002,5.528081e-002,1.827974e-001
6.801207131354271e-003,2.654015e-007,2.654015e-007,2.654015e-007,2.654015e-007,1.579924e-002,2.814497e-002,5.657046e-002,2.004836e-001
6.815331909622521e-003,2.654015e-007,2.654015e-007,2.654015e-007,2.654015e-007,1.593012e-002,2.846720e-002,5.757222e-002,2.173833e-001
6.818863104189584e-003,2.654015e-007,2.654015e-007,2.654015e-007,2.654015e-007,1.596309e-002,2.854866e-002,5.782773e-002,2.228867e-001
6.819745902831349e-003,2.654015e-007,2.654015e-007,2.654015e-007,2.654015e-007,1.597136e-002,2.856914e-002,5.789225e-002,2.246117e-001
6.821511500114881e-003,2.654015e-007,2.654015e-007,2.654015e-007,2.654015e-007,1.598792e-002,2.861018e-002,5.802174e-002,2.289535e-001
6.825042694681943e-003,2.654015e-007,2.654015e-007,2.654015e-007,2.654015e-007,1.602112e-002,2.869255e-002,5.828246e-002,2.401236e-001
6.832105083816068e-003,2.654015e-007,2.654015e-007,2.654015e-007,2.654015e-007,1.608779e-002,2.885830e-002,5.880967e-002,2.675922e-001
6.840901808128589e-003,2.654015e-007,2.654015e-007,2.654015e-007,2.654015e-007,1.617140e-002,2.906694e-002,5.947928e-002,3.091927e-001
6.858495256753630e-003,2.654015e-007,2.654015e-007,2.654015e-007,2.654015e-007,1.634044e-002,2.949119e-002,6.086039e-002,4.100040e-001
6.882491057081838e-003,2.654015e-007,2.654015e-007,2.654015e-007,2.654015e-007,1.657419e-002,3.008235e-002,6.282137e-002,5.716984e-001
6.905812207409035e-003,2.654015e-007,2.654015e-007,2.654015e-007,2.654015e-007,1.680535e-002,3.067254e-002,6.482731e-002,7.501161e-001
6.932704264859037e-003,2.654015e-007,2.654015e-007,2.654015e-007,2.654015e-007,1.707717e-002,3.137424e-002,6.728160e-002,9.716196e-001
6.961780886066722e-003,2.654015e-007,2.654015e-007,2.654015e-007,2.654015e-007,1.737772e-002,3.216012e-002,7.012772e-002,1.215256e+000
6.998991096809748e-003,2.654015e-007,2.654015e-007,2.654015e-007,2.654015e-007,1.777298e-002,3.321042e-002,7.411014e-002,1.515930e+000
7.046386869120673e-003,2.654015e-007,2.654015e-007,2.654015e-007,2.654015e-007,1.829529e-002,3.463022e-002,7.988887e-002,1.859034e+000
7.118707997779580e-003,2.654015e-007,2.654015e-007,2.654015e-007,2.654015e-007,1.913381e-002,3.698609e-002,9.067948e-002,2.282754e+000
7.212991200005733e-003,2.654015e-007,2.654015e-007,2.654015e-007,2.654015e-007,2.030210e-002,4.042352e-002,1.100807e-001,2.675984e+000
7.319857722113897e-003,2.654015e-007,2.654015e-007,2.654015e-007,2.654015e-007,2.170778e-002,4.473520e-002,1.396404e-001,2.976364e+000
7.334019412524945e-003,2.654015e-007,2.654015e-007,2.654015e-007,2.654015e-007,2.190401e-002,4.536042e-002,1.449325e-001,3.002896e+000
7.362342793347043e-003,2.654015e-007,2.654015e-007,2.654015e-007,2.654015e-007,2.231280e-002,4.670374e-002,1.591927e-001,3.039217e+000
7.406552219953053e-003,2.654015e-007,2.654015e-007,2.654015e-007,2.654015e-007,2.296570e-002,4.889068e-002,1.880686e-001,3.085096e+000
7.427786839990415e-003,2.654015e-007,2.654015e-007,2.654015e-007,2.654015e-007,2.328725e-002,4.999065e-002,2.126543e-001,3.101666e+000
7.446109987145802e-003,2.654015e-007,2.654015e-007,2.654015e-007,2.654015e-007,2.357133e-002,5.098231e-002,2.588666e-001,3.111444e+000
7.467355428025984e-003,2.654015e-007,2.654015e-007,2.654015e-007,2.654015e-007,2.390722e-002,5.217558e-002,3.524441e-001,3.117208e+000
7.491980518087748e-003,2.654015e-007,2.654015e-007,2.654015e-007,2.654015e-007,2.430269e-002,5.360062e-002,4.948007e-001,3.116790e+000
7.495607104131288e-003,2.654015e-007,2.654015e-007,2.654015e-007,2.654015e-007,2.436171e-002,5.381595e-002,5.189852e-001,3.114734e+000
7.502860276218369e-003,2.654015e-007,2.654015e-007,2.654015e-007,2.654015e-007,2.448113e-002,5.425629e-002,5.718983e-001,3.105027e+000
7.517366620392533e-003,2.654015e-007,2.654015e-007,2.654015e-007,2.654015e-007,2.472298e-002,5.515919e-002,6.840335e-001,3.075880e+000
7.546379308740859e-003,2.654015e-007,2.654015e-007,2.654015e-007,2.654015e-007,2.521566e-002,5.703240e-002,9.205682e-001,3.002749e+000
7.573001093545037e-003,2.654015e-007,2.654015e-007,2.654015e-007,2.654015e-007,2.568143e-002,5.885955e-002,1.141494e+000,2.925056e+000
7.626244663153391e-003,2.654015e-007,2.654015e-007,2.654015e-007,2.654015e-007,2.665355e-002,6.285631e-002,1.564344e+000,2.753868e+000
7.690946191602105e-003,2.654015e-007,2.654015e-007,2.654015e-007,2.654015e-007,2.790627e-002,6.838951e-002,2.008605e+000,2.537923e+000
7.777717410753785e-003,2.654015e-007,2.654015e-007,2.654015e-007,2.654015e-007,2.971602e-002,7.721509e-002,2.469405e+000,2.248798e+000
7.860359565631523e-003,2.654015e-007,2.654015e-007,2.654015e-007,2.654015e-007,3.159610e-002,8.770460e-002,2.772111e+000,1.983344e+000
7.949744864355020e-003,2.654015e-007,2.654015e-007,2.654015e-007,2.654015e-007,3.383122e-002,1.025222e-001,2.973896e+000,1.713042e+000
8.031670759993757e-003,2.654015e-007,2.654015e-007,2.654015e-007,2.654015e-007,3.608906e-002,1.213632e-001,3.053138e+000,1.483895e+000
8.111894626606015e-003,2.654015e-007,2.654015e-007,2.654015e-007,2.654015e-007,3.853621e-002,1.512371e-001,2.996033e+000,1.279618e+000
8.193104251920472e-003,2.654015e-007,2.654015e-007,2.654015e-007,2.654015e-007,4.121671e-002,1.972899e-001,2.817072e+000,1.089097e+000
8.202683626504026e-003,2.654015e-007,2.654015e-007,2.654015e-007,2.654015e-007,4.155318e-002,2.067184e-001,2.788215e+000,1.068110e+000
8.221842375671135e-003,2.654015e-007,2.654015e-007,2.654015e-007,2.654015e-007,4.225440e-002,2.414042e-001,2.724809e+000,1.028086e+000
8.239407387592698e-003,2.654015e-007,2.654015e-007,2.654015e-007,2.654015e-007,4.291086e-002,2.984128e-001,2.666082e+000,9.922334e-001
8.256391238929921e-003,2.654015e-007,2.654015e-007,2.654015e-007,2.654015e-007,4.356306e-002,3.838500e-001,2.608832e+000,9.586065e-001
8.279999106819341e-003,2.654015e-007,2.654015e-007,2.654015e-007,2.654015e-007,4.449704e-002,5.358262e-001,2.528997e+000,9.134088e-001
8.305321451463212e-003,2.654015e-007,2.654015e-007,2.654015e-007,2.654015e-007,4.554042e-002,7.256767e-001,2.443582e+000,8.670823e-001
8.349957299730189e-003,2.654015e-007,2.654015e-007,2.654015e-007,2.654015e-007,4.747915e-002,1.089112e+000,2.294422e+000,7.901328e-001
8.396650822750896e-003,2.654015e-007,2.654015e-007,2.654015e-007,2.654015e-007,4.965821e-002,1.463667e+000,2.141592e+000,7.158046e-001
8.462701145306985e-003,2.654015e-007,2.654015e-007,2.654015e-007,2.654015e-007,5.305937e-002,1.933268e+000,1.933297e+000,6.214771e-001
8.544399772625879e-003,2.654015e-007,2.654015e-007,2.654015e-007,2.654015e-007,5.783853e-002,2.388386e+000,1.690231e+000,5.196613e-001
8.638541763580568e-003,2.654015e-007,2.654015e-007,2.654015e-007,2.654015e-007,6.429207e-002,2.750357e+000,1.432356e+000,4.202874e-001
8.731399605244803e-003,2.654015e-007,2.654015e-007,2.654015e-007,2.654015e-007,7.205892e-002,2.963741e+000,1.204767e+000,3.395790e-001
8.838622192624154e-003,2.654015e-007,2.654015e-007,2.654015e-007,2.654015e-007,8.267171e-002,3.100708e+000,9.684075e-001,2.611937e-001
8.853710922100744e-003,2.654015e-007,2.654015e-007,2.654015e-007,2.654015e-007,8.440369e-002,3.109479e+000,9.381543e-001,2.516297e-001
8.883888381053924e-003,2.654015e-007,2.654015e-007,2.654015e-007,2.654015e-007,8.821271e-002,3.112125e+000,8.814589e-001,2.342474e-001
8.891432745792219e-003,2.654015e-007,2.654015e-007,2.654015e-007,2.654015e-007,8.921024e-002,3.108187e+000,8.676643e-001,2.300593e-001
8.906521475268809e-003,2.654015e-007,2.654015e-007,2.654015e-007,2.654015e-007,9.132749e-002,3.085599e+000,8.410099e-001,2.220629e-001
8.936698934221990e-003,2.654015e-007,2.654015e-007,2.654015e-007,2.654015e-007,9.586928e-002,3.015924e+000,7.896742e-001,2.068420e-001
8.974422249032724e-003,2.654015e-007,2.654015e-007,2.654015e-007,2.654015e-007,1.021376e-001,2.908318e+000,7.287775e-001,1.890631e-001
9.010755942800200e-003,2.654015e-007,2.654015e-007,2.654015e-007,2.654015e-007,1.092969e-001,2.792518e+000,6.745973e-001,1.735681e-001
9.083423330335148e-003,2.654015e-007,2.654015e-007,2.654015e-007,2.654015e-007,1.259193e-001,2.549707e+000,5.738571e-001,1.452772e-001
9.091045925768468e-003,2.654015e-007,2.654015e-007,2.654015e-007,2.654015e-007,1.279250e-001,2.523917e+000,5.639546e-001,1.425372e-001
9.106291116635107e-003,2.654015e-007,2.654015e-007,2.654015e-007,2.654015e-007,1.325296e-001,2.472191e+000,5.453522e-001,1.374604e-001
9.136781498368387e-003,2.654015e-007,2.654015e-007,2.654015e-007,2.654015e-007,1.436453e-001,2.369676e+000,5.101214e-001,1.279364e-001
9.197762261834944e-003,2.654015e-007,2.654015e-007,2.654015e-007,2.654015e-007,1.707389e-001,2.167015e+000,4.437497e-001,1.101776e-001
9.208096666056397e-003,2.654015e-007,2.654015e-007,2.654015e-007,2.654015e-007,1.765970e-001,2.133194e+000,4.332085e-001,1.073867e-001
9.228765474499301e-003,2.654015e-007,2.654015e-007,2.654015e-007,2.654015e-007,1.907191e-001,2.066426e+000,4.131886e-001,1.021308e-001
9.233932676610027e-003,2.654015e-007,2.654015e-007,2.654015e-007,2.654015e-007,1.947665e-001,2.049855e+000,4.082995e-001,1.008515e-001
9.244267080831479e-003,2.654015e-007,2.654015e-007,2.654015e-007,2.654015e-007,2.052093e-001,2.017025e+000,3.988051e-001,9.837721e-002
9.264935889274384e-003,2.654015e-007,2.654015e-007,2.654015e-007,2.654015e-007,2.307861e-001,1.951770e+000,3.801630e-001,9.353081e-002
9.265291003495621e-003,2.654015e-007,2.654015e-007,2.654015e-007,2.654015e-007,2.313245e-001,1.950655e+000,3.798482e-001,9.344915e-002
9.266001231938097e-003,2.654015e-007,2.654015e-007,2.654015e-007,2.654015e-007,2.325884e-001,1.948435e+000,3.792263e-001,9.328812e-002
9.267421688823049e-003,2.654015e-007,2.654015e-007,2.654015e-007,2.654015e-007,2.355452e-001,1.944000e+000,3.779860e-001,9.296708e-002
9.270262602592953e-003,2.654015e-007,2.654015e-007,2.654015e-007,2.654015e-007,2.433292e-001,1.935149e+000,3.755196e-001,9.232907e-002
9.275944430132761e-003,2.654015e-007,2.654015e-007,2.654015e-007,2.654015e-007,2.637993e-001,1.917518e+000,3.706415e-001,9.106900e-002
9.287015208831961e-003,2.654015e-007,2.654015e-007,2.654015e-007,2.654015e-007,3.127693e-001,1.883374e+000,3.612908e-001,8.865841e-002
9.297989453598353e-003,2.654015e-007,2.654015e-007,2.654015e-007,2.654015e-007,3.715371e-001,1.849875e+000,3.522644e-001,8.633865e-002
9.319937943131138e-003,2.654015e-007,2.654015e-007,2.654015e-007,2.654015e-007,5.135112e-001,1.784020e+000,3.349590e-001,8.191237e-002
9.354980596744941e-003,2.654015e-007,2.654015e-007,2.654015e-007,2.654015e-007,7.761955e-001,1.681639e+000,3.089692e-001,7.530743e-002
9.401010516158914e-003,2.654015e-007,2.654015e-007,2.654015e-007,2.654015e-007,1.149445e+000,1.552269e+000,2.775664e-001,6.739204e-002
9.451605265947868e-003,2.654015e-007,2.654015e-007,2.654015e-007,2.654015e-007,1.550464e+000,1.417621e+000,2.465930e-001,5.965982e-002
9.516998283473917e-003,2.654015e-007,2.654015e-007,2.654015e-007,2.654015e-007,1.999192e+000,1.256548e+000,2.117722e-001,5.106144e-002
9.607044127837161e-003,2.654015e-007,2.654015e-007,2.654015e-007,2.654015e-007,2.470378e+000,1.056551e+000,1.713282e-001,4.118992e-002
9.704532742942956e-003,2.654015e-007,2.654015e-007,2.654015e-007,2.654015e-007,2.804859e+000,8.682877e-001,1.358461e-001,3.263705e-002
9.822098731569083e-003,2.654015e-007,2.654015e-007,2.654015e-007,2.654015e-007,3.052425e+000,6.699905e-001,1.006629e-001,2.425112e-002
9.836452322799547e-003,2.654015e-007,2.654015e-007,2.654015e-007,2.654015e-007,3.070787e+000,6.485068e-001,9.701307e-002,2.338867e-002
9.865159505260474e-003,2.654015e-007,2.654015e-007,2.654015e-007,2.654015e-007,3.090151e+000,6.097882e-001,9.064937e-002,2.189566e-002
9.922573870182328e-003,2.654015e-007,2.654015e-007,2.654015e-007,2.654015e-007,3.111410e+000,5.361034e-001,7.868429e-002,1.909674e-002
9.929295668495403e-003,2.654015e-007,2.654015e-007,2.654015e-007,2.654015e-007,3.111294e+000,5.278945e-001,7.736698e-002,1.878952e-002
9.930976118073672e-003,2.654015e-007,2.654015e-007,2.654015e-007,2.654015e-007,3.110684e+000,5.259134e-001,7.705174e-002,1.871616e-002
9.934337017230210e-003,2.654015e-007,2.654015e-007,2.654015e-007,2.654015e-007,3.108435e+000,5.219762e-001,7.642612e-002,1.857063e-002
9.941058815543285e-003,2.654015e-007,2.654015e-007,2.654015e-007,2.654015e-007,3.099885e+000,5.141982e-001,7.519329e-002,1.828406e-002
9.954502412169435e-003,2.654015e-007,2.654015e-007,2.654015e-007,2.654015e-007,3.073646e+000,4.990176e-001,7.279873e-002,1.772825e-002
9.979887846979795e-003,2.654015e-007,2.654015e-007,2.654015e-007,2.654015e-007,3.011125e+000,4.713717e-001,6.846812e-002,1.672520e-002
1.000621593376159e-002,2.654015e-007,2.654015e-007,2.654015e-007,2.654015e-007,2.935493e+000,4.443552e-001,6.428031e-002,1.575867e-002
1.005887210732519e-002,2.654015e-007,2.654015e-007,2.654015e-007,2.654015e-007,2.767450e+000,3.953825e-001,5.680550e-002,1.404389e-002
1.014817026559080e-002,2.654015e-007,2.654015e-007,2.654015e-007,2.654015e-007,2.469995e+000,3.221182e-001,4.582038e-002,1.154479e-002
1.021974161821206e-002,2.654015e-007,2.654015e-007,2.654015e-007,2.654015e-007,2.231897e+000,2.717863e-001,3.842035e-002,9.880736e-003
1.029111631720506e-002,2.654015e-007,2.654015e-007,2.654015e-007,2.654015e-007,2.002590e+000,2.298402e-001,3.237574e-002,8.543102e-003
1.038039866702472e-002,2.654015e-007,2.654015e-007,2.654015e-007,2.654015e-007,1.731537e+000,1.859106e-001,2.615000e-002,7.191785e-003
1.046189897067740e-002,2.654015e-007,2.654015e-007,2.654015e-007,2.654015e-007,1.502921e+000,1.528455e-001,2.153713e-002,6.216786e-003
1.055714062835485e-002,2.654015e-007,2.654015e-007,2.654015e-007,2.654015e-007,1.261804e+000,1.215943e-001,1.724634e-002,5.344215e-003
1.065339957801315e-002,2.654015e-007,2.654015e-007,2.654015e-007,2.654015e-007,1.048148e+000,9.650582e-002,1.385684e-002,4.694096e-003
1.077579227491269e-002,2.654015e-007,2.654015e-007,2.654015e-007,2.654015e-007,8.192884e-001,7.206038e-002,1.061760e-002,4.133061e-003
1.091370898703226e-002,2.654015e-007,2.654015e-007,2.654015e-007,2.654015e-007,6.115134e-001,5.167422e-002,7.983382e-003,3.759070e-003
1.106660219312541e-002,2.654015e-007,2.654015e-007,2.654015e-007,2.654015e-007,4.359992e-001,3.574347e-002,6.002859e-003,3.593000e-003
1.123447386484653e-002,2.654015e-007,2.654015e-007,2.654015e-007,2.654015e-007,2.953207e-001,2.378056e-002,4.606095e-003,3.630325e-003
1.139073935979578e-002,2.654015e-007,2.654015e-007,2.654015e-007,2.654015e-007,2.029006e-001,1.632357e-002,3.826785e-003,3.828926e-003
1.154977135966116e-002,2.654015e-007,2.654015e-007,2.654015e-007,2.654015e-007,1.379111e-001,1.130356e-002,3.403732e-003,4.167457e-003
1.170425821878527e-002,2.654015e-007,2.654015e-007,2.654015e-007,2.654015e-007,9.445815e-002,8.073926e-003,3.238384e-003,4.609802e-003
1.186532896234185e-002,2.654015e-007,2.654015e-007,2.654015e-007,2.654015e-007,6.362320e-002,5.880197e-003,3.251230e-003,5.182430e-003
