time	V(vin)	V(n032)
0.000000000000000e+000	0.000000e+000	2.854310e-009
1.462857101484718e-007	1.838280e-006	2.854310e-009
2.925714202969436e-007	3.676561e-006	2.854310e-009
4.388571304454154e-007	5.514841e-006	2.854310e-009
5.851428405938872e-007	7.353122e-006	2.854310e-009
7.314285507423590e-007	9.191402e-006	2.854310e-009
8.777142608908308e-007	1.102968e-005	2.854310e-009
1.023999971039302e-006	1.286796e-005	2.854310e-009
4.095999884157209e-006	5.147185e-005	2.854323e-009
1.638399953662884e-005	2.058874e-004	2.854444e-009
3.276799907325767e-005	4.117748e-004	2.854612e-009
6.553599814651534e-005	8.235496e-004	2.854947e-009
1.310719962930307e-004	1.647099e-003	2.855616e-009
2.621439925860614e-004	3.294193e-003	2.856958e-009
4.218166854667773e-004	5.300680e-003	2.858594e-009
5.830356951278689e-004	7.326577e-003	2.860249e-009
7.402751499728471e-004	9.302437e-003	2.861865e-009
9.200063292904597e-004	1.156088e-002	2.863715e-009
1.165861091325546e-003	1.465012e-002	2.866252e-009
1.640400341757561e-003	2.061242e-002	2.871167e-009
2.086616570729996e-003	2.621819e-002	2.875818e-009
2.605171121110196e-003	3.273170e-002	2.881278e-009
3.164048971390298e-003	3.975014e-002	2.887268e-009
3.947878885075026e-003	4.959016e-002	2.895940e-009
4.924441385075026e-003	6.184287e-002	2.907314e-009
5.901003885075026e-003	7.408626e-002	2.919550e-009
6.877566385075026e-003	8.631849e-002	2.932949e-009
7.854128885075026e-003	9.853773e-002	2.947769e-009
8.830691385075026e-003	1.107421e-001	2.964254e-009
9.807253885075026e-003	1.229298e-001	2.982642e-009
1.078381638507503e-002	1.350991e-001	3.003187e-009
1.176037888507503e-002	1.472479e-001	3.026175e-009
1.273694138507503e-002	1.593746e-001	3.051950e-009
1.371350388507503e-002	1.714773e-001	3.080954e-009
1.469006638507503e-002	1.835541e-001	3.113772e-009
1.566662888507503e-002	1.956034e-001	3.151218e-009
1.664319138507503e-002	2.076231e-001	3.194474e-009
1.761975388507503e-002	2.196116e-001	3.245332e-009
1.859631638507503e-002	2.315670e-001	3.306639e-009
1.957287888507503e-002	2.434876e-001	3.383173e-009
2.054944138507503e-002	2.553715e-001	3.483625e-009
2.152600388507503e-002	2.672169e-001	3.621478e-009
2.233339760224862e-002	2.769800e-001	3.783268e-009
2.297332628185048e-002	2.846979e-001	3.968395e-009
2.348164383889862e-002	2.908155e-001	4.181223e-009
2.389028126763773e-002	2.957248e-001	4.429434e-009
2.421883424198367e-002	2.996663e-001	4.720806e-009
2.447938087709624e-002	3.027883e-001	5.060341e-009
2.468024051892250e-002	3.051929e-001	5.444563e-009
2.482229143018207e-002	3.068924e-001	5.814074e-009
2.484671571488080e-002	3.071845e-001	5.897014e-009
2.489556428427826e-002	3.077686e-001	6.110018e-009
2.499326142307318e-002	3.089364e-001	6.701145e-009
2.509303714748542e-002	3.101287e-001	7.548743e-009
2.510847853396996e-002	3.103132e-001	7.743509e-009
2.513936130693904e-002	3.106821e-001	8.249743e-009
2.514708200018131e-002	3.107743e-001	8.404299e-009
2.516252338666585e-002	3.109587e-001	8.785279e-009
2.517620660927120e-002	3.111221e-001	9.219990e-009
2.519049729828202e-002	3.112928e-001	9.809468e-009
2.519247522089622e-002	3.113164e-001	9.923024e-009
2.519643106612464e-002	3.113637e-001	1.026978e-008
2.520434275658146e-002	3.114581e-001	1.134518e-008
2.521730967698392e-002	3.116130e-001	1.395592e-008
2.523083560072585e-002	3.117745e-001	1.807792e-008
2.525315202914904e-002	3.120409e-001	2.830652e-008
2.527747005704140e-002	3.123313e-001	4.442651e-008
2.530500186815572e-002	3.126599e-001	6.909368e-008
2.533537066797792e-002	3.130224e-001	1.027367e-007
2.537359646554879e-002	3.134786e-001	1.533710e-007
2.541960597397818e-002	3.140275e-001	2.381543e-007
2.546615298889770e-002	3.145828e-001	4.042062e-007
2.551988435838177e-002	3.152237e-001	8.166951e-007
2.557662644795681e-002	3.159003e-001	1.581286e-006
2.563005261671333e-002	3.165372e-001	2.504118e-006
2.569929315761856e-002	3.173624e-001	3.749708e-006
2.576708760872442e-002	3.181702e-001	4.987215e-006
2.576862238274086e-002	3.181885e-001	5.016914e-006
2.577169193077374e-002	3.182251e-001	5.083707e-006
2.577783102683951e-002	3.182982e-001	5.240250e-006
2.579010921897104e-002	3.184445e-001	5.605962e-006
2.581466560323410e-002	3.187370e-001	6.482315e-006
2.585639271676132e-002	3.192339e-001	8.311368e-006
2.589818098216834e-002	3.197315e-001	1.055900e-005
2.593627723001839e-002	3.201851e-001	1.305039e-005
2.598213778575181e-002	3.207310e-001	1.669070e-005
2.606872216135719e-002	3.217614e-001	2.485653e-005
2.614899916788323e-002	3.227164e-001	3.360690e-005
2.622486185705941e-002	3.236185e-001	4.289334e-005
2.631243899123369e-002	3.246596e-001	5.443588e-005
2.639474565806233e-002	3.256377e-001	6.577741e-005
2.649052685488982e-002	3.267755e-001	7.928676e-005
2.658946780118856e-002	3.279504e-001	9.331472e-005
2.671390401233430e-002	3.294272e-001	1.108403e-004
2.685546058068449e-002	3.311062e-001	1.304912e-004
2.704746181190396e-002	3.333819e-001	1.566881e-004
2.723110645980590e-002	3.355567e-001	1.813052e-004
2.739213458335477e-002	3.374623e-001	2.025009e-004
2.754878341888191e-002	3.393146e-001	2.227493e-004
2.772027083483602e-002	3.413410e-001	2.445208e-004
2.788110302416728e-002	3.432400e-001	2.645668e-004
2.804207267036059e-002	3.451392e-001	2.842561e-004
2.819655340245980e-002	3.469605e-001	3.027983e-004
2.835424030752060e-002	3.488183e-001	3.213660e-004
2.850912717311677e-002	3.506417e-001	3.392509e-004
2.866689722578817e-002	3.524978e-001	3.571059e-004
2.882339070107189e-002	3.543374e-001	3.744530e-004
2.898347672763405e-002	3.562179e-001	3.918208e-004
2.914511843553776e-002	3.581151e-001	4.089677e-004
2.931331364639736e-002	3.600878e-001	4.263902e-004
2.948848816715980e-002	3.621405e-001	4.440772e-004
2.967756874539376e-002	3.643543e-001	4.626376e-004
2.988491801693736e-002	3.667796e-001	4.823509e-004
3.012232604976261e-002	3.695534e-001	5.040855e-004
3.040516205077954e-002	3.728536e-001	5.287896e-004
3.076282340814691e-002	3.770203e-001	5.581403e-004
3.123514487962375e-002	3.825110e-001	5.935434e-004
3.191770714303188e-002	3.904218e-001	6.389598e-004
3.250498769270854e-002	3.972054e-001	6.728079e-004
3.295506801103300e-002	4.023896e-001	6.949561e-004
3.328947214984229e-002	4.062330e-001	7.091720e-004
3.353762061459094e-002	4.090805e-001	7.184681e-004
3.372031058627482e-002	4.111743e-001	7.247084e-004
3.374905720056356e-002	4.115036e-001	7.256281e-004
3.380655042914105e-002	4.121619e-001	7.273764e-004
3.392153688629603e-002	4.134780e-001	7.307111e-004
3.407014929651297e-002	4.151777e-001	7.348176e-004
3.408719169988166e-002	4.153725e-001	7.352672e-004
3.412127650661905e-002	4.157621e-001	7.361345e-004
3.416292568274772e-002	4.162380e-001	7.371771e-004
3.418484143120976e-002	4.164884e-001	7.377171e-004
3.420335831611728e-002	4.167000e-001	7.381684e-004
3.420619482709175e-002	4.167324e-001	7.382372e-004
3.421186784904066e-002	4.167972e-001	7.383747e-004
3.422321389293851e-002	4.169268e-001	7.386506e-004
3.423808673178910e-002	4.170966e-001	7.390161e-004
3.425435674795883e-002	4.172825e-001	7.394264e-004
3.427716247016246e-002	4.175429e-001	7.400308e-004
3.430253925678382e-002	4.178326e-001	7.407610e-004
3.433086443117450e-002	4.181560e-001	7.416795e-004
3.436368495904189e-002	4.185306e-001	7.429231e-004
3.440491605850222e-002	4.190011e-001	7.448382e-004
3.445782520397228e-002	4.196047e-001	7.481719e-004
3.451591174667367e-002	4.202672e-001	7.539605e-004
3.456609855212239e-002	4.208394e-001	7.634743e-004
3.462403206292537e-002	4.214996e-001	7.853393e-004
3.468028831664141e-002	4.221406e-001	8.306215e-004
3.475241131423492e-002	4.229621e-001	9.447867e-004
3.483045096543684e-002	4.238505e-001	1.128461e-003
3.483490940161856e-002	4.239012e-001	1.141405e-003
3.484382627398198e-002	4.240027e-001	1.169547e-003
3.486166001870884e-002	4.242057e-001	1.225888e-003
3.486611845489056e-002	4.242564e-001	1.240010e-003
3.486723306393599e-002	4.242691e-001	1.243539e-003
3.486946228202684e-002	4.242944e-001	1.250571e-003
3.487392071820856e-002	4.243452e-001	1.264533e-003
3.488283759057199e-002	4.244466e-001	1.291920e-003
3.490067133529885e-002	4.246496e-001	1.343985e-003
3.493474936645078e-002	4.250372e-001	1.433435e-003
3.498518210030082e-002	4.256108e-001	1.543293e-003
3.505617896704228e-002	4.264180e-001	1.660501e-003
3.515515235886605e-002	4.275426e-001	1.779444e-003
3.523747736555019e-002	4.284776e-001	1.852840e-003
3.531529174953033e-002	4.293609e-001	1.906621e-003
3.539817818235942e-002	4.303014e-001	1.953948e-003
3.548763664989117e-002	4.313159e-001	1.997625e-003
3.558944503031206e-002	4.324698e-001	2.041268e-003
3.570468746748143e-002	4.337751e-001	2.085635e-003
3.584541877903157e-002	4.353678e-001	2.135519e-003
3.602176930865104e-002	4.373618e-001	2.194535e-003
3.621566567249417e-002	4.395517e-001	2.256700e-003
3.638353161355453e-002	4.414454e-001	2.308410e-003
3.654009064939506e-002	4.432099e-001	2.354694e-003
3.671372736948602e-002	4.451648e-001	2.403982e-003
3.687393291599975e-002	4.469666e-001	2.447595e-003
3.703599433452217e-002	4.487875e-001	2.489844e-003
3.719003643666471e-002	4.505165e-001	2.528276e-003
3.734840956919593e-002	4.522924e-001	2.566039e-003
3.750286660462476e-002	4.540226e-001	2.601183e-003
3.766097730572585e-002	4.557920e-001	2.635438e-003
3.781698094535637e-002	4.575360e-001	2.667548e-003
3.797704074389216e-002	4.593236e-001	2.698755e-003
3.813788776088062e-002	4.611181e-001	2.728360e-003
3.830537532081570e-002	4.629847e-001	2.757325e-003
3.847886030552393e-002	4.649159e-001	2.785342e-003
3.866574278034497e-002	4.669938e-001	2.813280e-003
3.886923470568077e-002	4.692535e-001	2.841079e-003
3.910111880857563e-002	4.718247e-001	2.869455e-003
3.937305352981688e-002	4.748349e-001	2.899048e-003
3.953044798508706e-002	4.765746e-001	2.914517e-003
3.955026635018226e-002	4.767935e-001	2.916317e-003
3.958990308037266e-002	4.772313e-001	2.919741e-003
3.966917654075347e-002	4.781065e-001	2.926411e-003
3.967951906166908e-002	4.782206e-001	2.927258e-003
3.970020410350029e-002	4.784489e-001	2.928906e-003
3.974157418716273e-002	4.789053e-001	2.932145e-003
3.976233232258615e-002	4.791343e-001	2.933744e-003
3.976298101431813e-002	4.791415e-001	2.933793e-003
3.976427839778210e-002	4.791558e-001	2.933892e-003
3.976687316471003e-002	4.791844e-001	2.934088e-003
3.977206269856588e-002	4.792417e-001	2.934478e-003
3.978244176627760e-002	4.793561e-001	2.935258e-003
3.979541401929628e-002	4.794992e-001	2.936265e-003
3.981232794202958e-002	4.796857e-001	2.937996e-003
3.984615578749617e-002	4.800586e-001	2.944604e-003
3.988852466191921e-002	4.805256e-001	2.963664e-003
3.993902098078719e-002	4.810820e-001	3.013124e-003
3.999886004511003e-002	4.817411e-001	3.122815e-003
4.007159534781678e-002	4.825419e-001	3.332523e-003
4.016848562832343e-002	4.836079e-001	3.686467e-003
4.028690337826903e-002	4.849099e-001	4.125831e-003
4.039664656204354e-002	4.861155e-001	4.489595e-003
4.041345173803966e-002	4.863001e-001	4.538173e-003
4.041765303203869e-002	4.863462e-001	4.549344e-003
4.042605562003675e-002	4.864385e-001	4.571060e-003
4.044286079603288e-002	4.866230e-001	4.612526e-003
4.047457021893133e-002	4.869711e-001	4.685600e-003
4.050649361401111e-002	4.873214e-001	4.752828e-003
4.054493710446288e-002	4.877432e-001	4.824637e-003
4.062182408536642e-002	4.885864e-001	4.951321e-003
4.069597875634941e-002	4.893993e-001	5.060112e-003
4.076939874747393e-002	4.902036e-001	5.157060e-003
4.084949472834688e-002	4.910807e-001	5.254603e-003
4.093506276220484e-002	4.920171e-001	5.352322e-003
4.102322507681284e-002	4.929813e-001	5.447895e-003
4.111954274340015e-002	4.940340e-001	5.547986e-003
4.123029588612547e-002	4.952436e-001	5.659341e-003
4.136282815320413e-002	4.966897e-001	5.789317e-003
4.152841416372613e-002	4.984947e-001	5.948346e-003
4.174441584795356e-002	5.008459e-001	6.151657e-003
4.192048888779989e-002	5.027598e-001	6.313958e-003
4.207530220111852e-002	5.044405e-001	6.453580e-003
4.225011369303913e-002	5.063360e-001	6.608001e-003
4.240983371983516e-002	5.080658e-001	6.746166e-003
4.257287524460858e-002	5.098295e-001	6.884201e-003
4.272673299793685e-002	5.114918e-001	7.011673e-003
4.288569904893202e-002	5.132073e-001	7.140504e-003
4.303993385696722e-002	5.148698e-001	7.262713e-003
4.319846966995580e-002	5.165766e-001	7.385438e-003
4.335442030281196e-002	5.182536e-001	7.503296e-003
4.351501936153391e-002	5.199786e-001	7.621666e-003
4.367624795337157e-002	5.217081e-001	7.737428e-003
4.384493199291151e-002	5.235153e-001	7.855220e-003
4.402006737929079e-002	5.253892e-001	7.973898e-003
4.421023869573127e-002	5.274211e-001	8.098558e-003
4.441884175276601e-002	5.296464e-001	8.230220e-003
4.465968707410209e-002	5.322111e-001	8.375523e-003
4.495069972535423e-002	5.353036e-001	8.541388e-003
4.532348042423637e-002	5.392545e-001	8.738133e-003
4.582998240417548e-002	5.446037e-001	8.976061e-003
4.661783204830973e-002	5.528803e-001	9.289370e-003
4.742507935390869e-002	5.613045e-001	9.547638e-003
4.807278496941307e-002	5.680220e-001	9.707256e-003
4.854032955994469e-002	5.728476e-001	9.795480e-003
4.886352772431906e-002	5.761719e-001	9.843437e-003
4.908375916795006e-002	5.784316e-001	9.870172e-003
4.924037593399196e-002	5.800359e-001	9.886247e-003
4.938648603597289e-002	5.815306e-001	9.899507e-003
4.941348757534328e-002	5.818066e-001	9.901739e-003
4.946749065408407e-002	5.823584e-001	9.905826e-003
4.957549681156564e-002	5.834612e-001	9.913393e-003
4.966660138548807e-002	5.843906e-001	9.919236e-003
4.970759013102551e-002	5.848085e-001	9.921663e-003
4.971399487395162e-002	5.848738e-001	9.922022e-003
4.972680435980383e-002	5.850044e-001	9.922728e-003
4.972841642339387e-002	5.850208e-001	9.922816e-003
4.973164055057394e-002	5.850537e-001	9.922991e-003
4.973808880493410e-002	5.851194e-001	9.923337e-003
4.974669402970666e-002	5.852070e-001	9.923801e-003
4.976103485118107e-002	5.853532e-001	9.924654e-003
4.977603169914131e-002	5.855060e-001	9.926366e-003
4.980602539506180e-002	5.858115e-001	9.936387e-003
4.984639417898963e-002	5.862225e-001	9.975253e-003
4.989494051183227e-002	5.867167e-001	1.008855e-002
4.995181273462631e-002	5.872952e-001	1.036130e-002
5.002929959946591e-002	5.880831e-001	1.098674e-002
5.012517683455709e-002	5.890571e-001	1.201865e-002
5.022996014507671e-002	5.901207e-001	1.320052e-002
5.034366679651631e-002	5.912736e-001	1.435752e-002
5.035855330609741e-002	5.914245e-001	1.448598e-002
5.038832632525962e-002	5.917261e-001	1.471242e-002
5.039576958005017e-002	5.918015e-001	1.476598e-002
5.041065608963127e-002	5.919523e-001	1.486548e-002
5.044042910879348e-002	5.922538e-001	1.504785e-002
5.047726688179361e-002	5.926268e-001	1.524807e-002
5.051271729120565e-002	5.929855e-001	1.541152e-002
5.058361811002972e-002	5.937027e-001	1.568185e-002
5.065951164796558e-002	5.944698e-001	1.592150e-002
5.073442540485790e-002	5.952266e-001	1.611740e-002
5.081390310434842e-002	5.960289e-001	1.629462e-002
5.089937736268165e-002	5.968909e-001	1.646211e-002
5.098654339722632e-002	5.977694e-001	1.661618e-002
5.108237333068774e-002	5.987344e-001	1.677242e-002
5.119189832869541e-002	5.998362e-001	1.694096e-002
5.132353451081668e-002	6.011589e-001	1.713618e-002
5.148694867494119e-002	6.027987e-001	1.737304e-002
5.170076992081424e-002	6.049404e-001	1.767750e-002
5.187697404209735e-002	6.067021e-001	1.792420e-002
5.200711248097085e-002	6.080012e-001	1.810393e-002
5.202558435070220e-002	6.081855e-001	1.812921e-002
5.206252809016489e-002	6.085540e-001	1.817945e-002
5.211963040707505e-002	6.091232e-001	1.825682e-002
5.214393893298119e-002	6.093655e-001	1.828965e-002
5.215001606445772e-002	6.094260e-001	1.829784e-002
5.216217032741078e-002	6.095471e-001	1.831419e-002
5.216520889314905e-002	6.095774e-001	1.831828e-002
5.217128602462558e-002	6.096379e-001	1.832644e-002
5.217280530749471e-002	6.096531e-001	1.832848e-002
5.217584387323298e-002	6.096833e-001	1.833256e-002
5.217660351466755e-002	6.096908e-001	1.833358e-002
5.217812279753668e-002	6.097060e-001	1.833562e-002
5.217850261825396e-002	6.097098e-001	1.833613e-002
5.217926225968853e-002	6.097174e-001	1.833715e-002
5.218078154255767e-002	6.097325e-001	1.833919e-002
5.218382010829593e-002	6.097627e-001	1.834327e-002
5.218989723977247e-002	6.098233e-001	1.835141e-002
5.219858023674105e-002	6.099098e-001	1.836304e-002
5.221551375309806e-002	6.100784e-001	1.838570e-002
5.224087979695937e-002	6.103309e-001	1.842009e-002
5.228134397514156e-002	6.107336e-001	1.847941e-002
5.232600762688569e-002	6.111780e-001	1.856114e-002
5.238221298396217e-002	6.117368e-001	1.870648e-002
5.245083576242005e-002	6.124188e-001	1.896344e-002
5.255672412955097e-002	6.134701e-001	1.947818e-002
5.266400718939038e-002	6.145343e-001	2.005992e-002
5.277838296065550e-002	6.156675e-001	2.068698e-002
5.279488201937254e-002	6.158308e-001	2.077403e-002
5.282788013680662e-002	6.161575e-001	2.094224e-002
5.283612966616515e-002	6.162391e-001	2.098346e-002
5.285262872488219e-002	6.164024e-001	2.106354e-002
5.288562684231627e-002	6.167289e-001	2.121762e-002
5.292363932245523e-002	6.171048e-001	2.138587e-002
5.295886423602979e-002	6.174531e-001	2.153080e-002
5.302931406317891e-002	6.181492e-001	2.179794e-002
5.310565307340476e-002	6.189030e-001	2.206542e-002
5.318107354472627e-002	6.196471e-001	2.231021e-002
5.326118309233183e-002	6.204370e-001	2.255438e-002
5.334705168552940e-002	6.212829e-001	2.280353e-002
5.343466749425462e-002	6.221452e-001	2.304834e-002
5.353087401228227e-002	6.230913e-001	2.330991e-002
5.364103169155177e-002	6.241734e-001	2.360419e-002
5.377339668522540e-002	6.254721e-001	2.395409e-002
5.393813821348385e-002	6.270860e-001	2.438616e-002
5.413737347751275e-002	6.290343e-001	2.490443e-002
5.433773617289386e-002	6.309896e-001	2.542111e-002
5.450083762485251e-002	6.325783e-001	2.583802e-002
5.465662067308703e-002	6.340933e-001	2.623284e-002
5.482140677653594e-002	6.356931e-001	2.664706e-002
5.498131934361935e-002	6.372431e-001	2.704572e-002
5.514033344205277e-002	6.387818e-001	2.743880e-002
5.529586128419813e-002	6.402843e-001	2.782002e-002
5.545285681363567e-002	6.417984e-001	2.820153e-002
5.560901720867247e-002	6.433021e-001	2.857771e-002
5.576737116526231e-002	6.448243e-001	2.895578e-002
5.592668582416938e-002	6.463532e-001	2.933264e-002
5.609032725387676e-002	6.479210e-001	2.971604e-002
5.625904741155421e-002	6.495345e-001	3.010738e-002
5.643785117022215e-002	6.512412e-001	3.051766e-002
5.663074529554893e-002	6.530789e-001	3.095504e-002
5.684685275159521e-002	6.551330e-001	3.143851e-002
5.709696192955942e-002	6.575043e-001	3.198914e-002
5.741007204599391e-002	6.604638e-001	3.266466e-002
5.781631145649601e-002	6.642882e-001	3.351707e-002
5.840516399662556e-002	6.698011e-001	3.470015e-002
5.938172649662556e-002	6.788628e-001	3.654620e-002
6.035828899662556e-002	6.878223e-001	3.825876e-002
6.109605569588031e-002	6.945223e-001	3.945046e-002
6.161690837720724e-002	6.992165e-001	4.023154e-002
6.198010690565837e-002	7.024721e-001	4.074502e-002
6.223481796242109e-002	7.047465e-001	4.108950e-002
6.240986090830473e-002	7.063054e-001	4.131843e-002
6.255920843519985e-002	7.076327e-001	4.150941e-002
6.258641803449100e-002	7.078742e-001	4.154367e-002
6.264083723307327e-002	7.083571e-001	4.161130e-002
6.274967563023783e-002	7.093219e-001	4.174503e-002
6.285400373253663e-002	7.102454e-001	4.187176e-002
6.286934422897302e-002	7.103810e-001	4.189020e-002
6.290002522184578e-002	7.106524e-001	4.192685e-002
6.290769547006396e-002	7.107202e-001	4.193598e-002
6.292303596650034e-002	7.108558e-001	4.195420e-002
6.293648291457218e-002	7.109746e-001	4.197015e-002
6.293825070430276e-002	7.109903e-001	4.197225e-002
6.294178628376390e-002	7.110215e-001	4.197643e-002
6.294885744268620e-002	7.110839e-001	4.198479e-002
