time	V(spikes1)	V(spikes2)	V(spikes3)	V(spikes4)	V(spikes5)	V(spikes6)	V(spikes7)	V(spikes8)
0.000000000000000e+000	2.654015e-007	2.654015e-007	2.654015e-007	2.654015e-007	2.654015e-007	2.654015e-007	2.654015e-007	2.654015e-007
1.170285681187774e-006	2.654015e-007	2.654015e-007	2.654015e-007	2.654015e-007	2.654015e-007	2.654015e-007	2.654015e-007	2.654015e-007
2.340571362375549e-006	2.654015e-007	2.654015e-007	2.654015e-007	2.654015e-007	2.654015e-007	2.654015e-007	2.654015e-007	2.654015e-007
3.510857043563323e-006	2.654015e-007	2.654015e-007	2.654015e-007	2.654015e-007	2.654015e-007	2.654015e-007	2.654015e-007	2.654015e-007
4.681142724751098e-006	2.654015e-007	2.654015e-007	2.654015e-007	2.654015e-007	2.654015e-007	2.654015e-007	2.654015e-007	2.654015e-007
5.851428405938872e-006	2.654015e-007	2.654015e-007	2.654015e-007	2.654015e-007	2.654016e-007	2.654016e-007	2.654016e-007	2.654016e-007
7.021714087126647e-006	2.654015e-007	2.654015e-007	2.654015e-007	2.654015e-007	2.654016e-007	2.654016e-007	2.654016e-007	2.654016e-007
8.191999768314418e-006	2.654015e-007	2.654015e-007	2.654015e-007	2.654015e-007	2.654017e-007	2.654017e-007	2.654017e-007	2.654017e-007
1.638399953662884e-005	2.654015e-007	2.654015e-007	2.654015e-007	2.654015e-007	2.654074e-007	2.654074e-007	2.654074e-007	2.654074e-007
3.276799907325767e-005	2.654015e-007	2.654015e-007	2.654015e-007	2.654015e-007	2.655721e-007	2.655726e-007	2.655730e-007	2.655734e-007
6.553599814651534e-005	2.654015e-007	2.654015e-007	2.654015e-007	2.654015e-007	2.700076e-007	2.700304e-007	2.700534e-007	2.700765e-007
1.310719962930307e-004	2.654015e-007	2.654015e-007	2.654015e-007	2.654015e-007	3.807678e-007	3.820035e-007	3.832549e-007	3.845222e-007
2.621439925860614e-004	2.654015e-007	2.654015e-007	2.654015e-007	2.654015e-007	1.344402e-006	1.360048e-006	1.375962e-006	1.392149e-006
3.896806906632494e-004	2.654015e-007	2.654015e-007	2.654015e-007	2.654015e-007	4.117339e-006	4.186710e-006	4.257547e-006	4.329884e-006
5.075215618300581e-004	2.654015e-007	2.654015e-007	2.654015e-007	2.654015e-007	9.816160e-006	1.002253e-005	1.023410e-005	1.045105e-005
6.186628375808819e-004	2.654015e-007	2.654015e-007	2.654015e-007	2.654015e-007	1.956091e-005	2.005274e-005	2.055927e-005	2.108102e-005
7.363186331018634e-004	2.654015e-007	2.654015e-007	2.654015e-007	2.654015e-007	3.621924e-005	3.730286e-005	3.842516e-005	3.958773e-005
8.804662612604638e-004	2.654015e-007	2.654015e-007	2.654015e-007	2.654015e-007	6.745616e-005	6.990197e-005	7.245482e-005	7.512019e-005
1.075944070153466e-003	2.654015e-007	2.654015e-007	2.654015e-007	2.654015e-007	1.307525e-004	1.366723e-004	1.429218e-004	1.495232e-004
1.345401142951240e-003	2.654015e-007	2.654015e-007	2.654015e-007	2.654015e-007	2.596392e-004	2.749003e-004	2.913046e-004	3.089582e-004
1.748815460968856e-003	2.654015e-007	2.654015e-007	2.654015e-007	2.654015e-007	5.408211e-004	5.850374e-004	6.341882e-004	6.890139e-004
2.381823751288089e-003	2.654015e-007	2.654015e-007	2.654015e-007	2.654015e-007	1.158647e-003	1.298649e-003	1.463870e-003	1.660934e-003
3.184403851227334e-003	2.654015e-007	2.654015e-007	2.654015e-007	2.654015e-007	2.200215e-003	2.586424e-003	3.075490e-003	3.702081e-003
3.920638444173440e-003	2.654015e-007	2.654015e-007	2.654015e-007	2.654015e-007	3.450678e-003	4.286322e-003	5.416451e-003	6.959226e-003
4.615677244545841e-003	2.654015e-007	2.654015e-007	2.654015e-007	2.654015e-007	4.986747e-003	6.588472e-003	8.887509e-003	1.223215e-002
5.119870170601613e-003	2.654015e-007	2.654015e-007	2.654015e-007	2.654015e-007	6.419125e-003	8.919232e-003	1.268517e-002	1.851094e-002
5.481658654328118e-003	2.654015e-007	2.654015e-007	2.654015e-007	2.654015e-007	7.708555e-003	1.116003e-002	1.660190e-002	2.559451e-002
5.778922313292664e-003	2.654015e-007	2.654015e-007	2.654015e-007	2.654015e-007	8.989839e-003	1.351317e-002	2.100636e-002	3.440724e-002
6.034662210234481e-003	2.654015e-007	2.654015e-007	2.654015e-007	2.654015e-007	1.028626e-002	1.601958e-002	2.604464e-002	4.581148e-002
6.253688550989429e-003	2.654015e-007	2.654015e-007	2.654015e-007	2.654015e-007	1.156755e-002	1.862329e-002	3.169082e-002	6.074917e-002
6.435943676913300e-003	2.654015e-007	2.654015e-007	2.654015e-007	2.654015e-007	1.277488e-002	2.119474e-002	3.771521e-002	8.005275e-002
6.575333726460407e-003	2.654015e-007	2.654015e-007	2.654015e-007	2.654015e-007	1.378458e-002	2.342224e-002	4.325642e-002	1.008822e-001
6.595020596658886e-003	2.654015e-007	2.654015e-007	2.654015e-007	2.654015e-007	1.393655e-002	2.376658e-002	4.415571e-002	1.048195e-001
6.634394337055846e-003	2.654015e-007	2.654015e-007	2.654015e-007	2.654015e-007	1.425496e-002	2.450331e-002	4.615923e-002	1.151638e-001
6.713141817849764e-003	2.654015e-007	2.654015e-007	2.654015e-007	2.654015e-007	1.491429e-002	2.605488e-002	5.053228e-002	1.432050e-001
6.777044758228236e-003	2.654015e-007	2.654015e-007	2.654015e-007	2.654015e-007	1.546797e-002	2.737969e-002	5.440018e-002	1.744701e-001
6.787157084925138e-003	2.654015e-007	2.654015e-007	2.654015e-007	2.654015e-007	1.555837e-002	2.759936e-002	5.506333e-002	1.815706e-001
6.807381738318942e-003	2.654015e-007	2.654015e-007	2.654015e-007	2.654015e-007	1.574240e-002	2.805048e-002	5.645178e-002	1.995587e-001
6.812437901667393e-003	2.654015e-007	2.654015e-007	2.654015e-007	2.654015e-007	1.578877e-002	2.816464e-002	5.680657e-002	2.051180e-001
6.822550228364295e-003	2.654015e-007	2.654015e-007	2.654015e-007	2.654015e-007	1.588215e-002	2.839534e-002	5.752942e-002	2.186190e-001
6.825078310038520e-003	2.654015e-007	2.654015e-007	2.654015e-007	2.654015e-007	1.590559e-002	2.845337e-002	5.771215e-002	2.231921e-001
6.830134473386971e-003	2.654015e-007	2.654015e-007	2.654015e-007	2.654015e-007	1.595271e-002	2.857032e-002	5.808275e-002	2.371974e-001
6.840246800083873e-003	2.654015e-007	2.654015e-007	2.654015e-007	2.654015e-007	1.604747e-002	2.880626e-002	5.883579e-002	2.763371e-001
6.853841912358698e-003	2.654015e-007	2.654015e-007	2.654015e-007	2.654015e-007	1.617591e-002	2.912742e-002	5.987158e-002	3.430680e-001
6.868637215367370e-003	2.654015e-007	2.654015e-007	2.654015e-007	2.654015e-007	1.631724e-002	2.948294e-002	6.103526e-002	4.308284e-001
6.889736412490977e-003	2.654015e-007	2.654015e-007	2.654015e-007	2.654015e-007	1.652156e-002	3.000081e-002	6.276227e-002	5.765169e-001
6.913539270888120e-003	2.654015e-007	2.654015e-007	2.654015e-007	2.654015e-007	1.675582e-002	3.059989e-002	6.480626e-002	7.601364e-001
6.939697488350478e-003	2.654015e-007	2.654015e-007	2.654015e-007	2.654015e-007	1.701822e-002	3.127820e-002	6.718678e-002	9.759076e-001
6.969662449857180e-003	2.654015e-007	2.654015e-007	2.654015e-007	2.654015e-007	1.732558e-002	3.208301e-002	7.011138e-002	1.226992e+000
7.006495352632714e-003	2.654015e-007	2.654015e-007	2.654015e-007	2.654015e-007	1.771386e-002	3.311630e-002	7.404457e-002	1.523884e+000
7.055083438850614e-003	2.654015e-007	2.654015e-007	2.654015e-007	2.654015e-007	1.824537e-002	3.456356e-002	7.996260e-002	1.873813e+000
7.127779307041271e-003	2.654015e-007	2.654015e-007	2.654015e-007	2.654015e-007	1.908196e-002	3.691806e-002	9.080201e-002	2.296433e+000
7.221641123759671e-003	2.654015e-007	2.654015e-007	2.654015e-007	2.654015e-007	2.023631e-002	4.032063e-002	1.101257e-001	2.683515e+000
7.328760404343807e-003	2.654015e-007	2.654015e-007	2.654015e-007	2.654015e-007	2.163441e-002	4.461662e-002	1.397753e-001	2.980471e+000
7.342927623186073e-003	2.654015e-007	2.654015e-007	2.654015e-007	2.654015e-007	2.182914e-002	4.523811e-002	1.450737e-001	3.006603e+000
7.371262060870606e-003	2.654015e-007	2.654015e-007	2.654015e-007	2.654015e-007	2.223475e-002	4.657313e-002	1.593520e-001	3.042248e+000
7.415372304618291e-003	2.654015e-007	2.654015e-007	2.654015e-007	2.654015e-007	2.288077e-002	4.874036e-002	1.881884e-001	3.087020e+000
7.436593459081763e-003	2.654015e-007	2.654015e-007	2.654015e-007	2.654015e-007	2.319940e-002	4.983191e-002	2.127810e-001	3.103108e+000
7.454913004045995e-003	2.654015e-007	2.654015e-007	2.654015e-007	2.654015e-007	2.348097e-002	5.081619e-002	2.590090e-001	3.112443e+000
7.476140174402221e-003	2.654015e-007	2.654015e-007	2.654015e-007	2.654015e-007	2.381365e-002	5.199958e-002	3.525386e-001	3.117159e+000
7.500786962966235e-003	2.654015e-007	2.654015e-007	2.654015e-007	2.654015e-007	2.420829e-002	5.343159e-002	5.022995e-001	3.107044e+000
7.529760749642230e-003	2.654015e-007	2.654015e-007	2.654015e-007	2.654015e-007	2.468524e-002	5.520919e-002	7.156552e-001	3.063051e+000
7.573363658357884e-003	2.654015e-007	2.654015e-007	2.654015e-007	2.654015e-007	2.542747e-002	5.807013e-002	1.069258e+000	2.952218e+000
7.617755553120584e-003	2.654015e-007	2.654015e-007	2.654015e-007	2.654015e-007	2.621303e-002	6.122414e-002	1.431737e+000	2.815490e+000
7.662400594577629e-003	2.654015e-007	2.654015e-007	2.654015e-007	2.654015e-007	2.704792e-002	6.479970e-002	1.761145e+000	2.667674e+000
7.751690677491718e-003	2.654015e-007	2.654015e-007	2.654015e-007	2.654015e-007	2.883394e-002	7.313667e-002	2.296120e+000	2.368157e+000
7.837319586864063e-003	2.654015e-007	2.654015e-007	2.654015e-007	2.654015e-007	3.068675e-002	8.282238e-002	2.671170e+000	2.087660e+000
7.916550768091181e-003	2.654015e-007	2.654015e-007	2.654015e-007	2.654015e-007	3.256657e-002	9.428151e-002	2.894056e+000	1.840848e+000
8.002745404277350e-003	2.654015e-007	2.654015e-007	2.654015e-007	2.654015e-007	3.481673e-002	1.110413e-001	3.034803e+000	1.590698e+000
8.088654542660273e-003	2.654015e-007	2.654015e-007	2.654015e-007	2.654015e-007	3.723778e-002	1.325086e-001	3.110253e+000	1.357597e+000
8.101154977683883e-003	2.654015e-007	2.654015e-007	2.654015e-007	2.654015e-007	3.761127e-002	1.363564e-001	3.114517e+000	1.325562e+000
8.104280086439786e-003	2.654015e-007	2.654015e-007	2.654015e-007	2.654015e-007	3.770765e-002	1.374363e-001	3.114579e+000	1.317815e+000
8.110530303951591e-003	2.654015e-007	2.654015e-007	2.654015e-007	2.654015e-007	3.790187e-002	1.396743e-001	3.112797e+000	1.302438e+000
8.123030738975200e-003	2.654015e-007	2.654015e-007	2.654015e-007	2.654015e-007	3.829607e-002	1.444995e-001	3.099767e+000	1.272147e+000
8.148031609022419e-003	2.654015e-007	2.654015e-007	2.654015e-007	2.654015e-007	3.910392e-002	1.555771e-001	3.051353e+000	1.213078e+000
8.179392724987713e-003	2.654015e-007	2.654015e-007	2.654015e-007	2.654015e-007	4.015164e-002	1.729936e-001	2.970038e+000	1.141554e+000
8.212077147737133e-003	2.654015e-007	2.654015e-007	2.654015e-007	2.654015e-007	4.127950e-002	1.960690e-001	2.872858e+000	1.069611e+000
8.220016550278970e-003	2.654015e-007	2.654015e-007	2.654015e-007	2.654015e-007	4.156185e-002	2.037256e-001	2.847608e+000	1.052714e+000
8.235895355362644e-003	2.654015e-007	2.654015e-007	2.654015e-007	2.654015e-007	4.213794e-002	2.234948e-001	2.795517e+000	1.019679e+000
8.239865056633563e-003	2.654015e-007	2.654015e-007	2.654015e-007	2.654015e-007	4.228367e-002	2.309472e-001	2.782366e+000	1.011529e+000
8.247804459175400e-003	2.654015e-007	2.654015e-007	2.654015e-007	2.654015e-007	4.257939e-002	2.554473e-001	2.755812e+000	9.954953e-001
8.262830081230809e-003	2.654015e-007	2.654015e-007	2.654015e-007	2.654015e-007	4.314758e-002	3.211949e-001	2.705245e+000	9.656619e-001
8.280302313926196e-003	2.654015e-007	2.654015e-007	2.654015e-007	2.654015e-007	4.382238e-002	4.184477e-001	2.646104e+000	9.317911e-001
8.299632702079635e-003	2.654015e-007	2.654015e-007	2.654015e-007	2.654015e-007	4.459376e-002	5.491267e-001	2.580474e+000	8.956740e-001
8.338293478386513e-003	2.654015e-007	2.654015e-007	2.654015e-007	2.654015e-007	4.620577e-002	8.481756e-001	2.449520e+000	8.269423e-001
8.381864155264238e-003	2.654015e-007	2.654015e-007	2.654015e-007	2.654015e-007	4.813480e-002	1.203246e+000	2.303566e+000	7.545402e-001
8.437533826996517e-003	2.654015e-007	2.654015e-007	2.654015e-007	2.654015e-007	5.080591e-002	1.638515e+000	2.121353e+000	6.700683e-001
8.503377484505824e-003	2.654015e-007	2.654015e-007	2.654015e-007	2.654015e-007	5.430976e-002	2.078697e+000	1.914216e+000	5.809527e-001
8.585525367144535e-003	2.654015e-007	2.654015e-007	2.654015e-007	2.654015e-007	5.929622e-002	2.496418e+000	1.670900e+000	4.844867e-001
8.676284395408329e-003	2.654015e-007	2.654015e-007	2.654015e-007	2.654015e-007	6.577447e-002	2.807996e+000	1.423676e+000	3.943855e-001
8.771310593295488e-003	2.654015e-007	2.654015e-007	2.654015e-007	2.654015e-007	7.408803e-002	2.996747e+000	1.192273e+000	3.168566e-001
8.878239608724007e-003	2.654015e-007	2.654015e-007	2.654015e-007	2.654015e-007	8.517762e-002	3.107043e+000	9.578997e-001	2.434126e-001
8.890624870648583e-003	2.654015e-007	2.654015e-007	2.654015e-007	2.654015e-007	8.664710e-002	3.111926e+000	9.330072e-001	2.359613e-001
8.893721186129727e-003	2.654015e-007	2.654015e-007	2.654015e-007	2.654015e-007	8.704334e-002	3.111958e+000	9.271001e-001	2.342385e-001
8.899913817092015e-003	2.654015e-007	2.654015e-007	2.654015e-007	2.654015e-007	8.784313e-002	3.111547e+000	9.153485e-001	2.308181e-001
8.901461974832587e-003	2.654015e-007	2.654015e-007	2.654015e-007	2.654015e-007	8.804499e-002	3.111293e+000	9.124267e-001	2.299695e-001
8.904558290313731e-003	2.654015e-007	2.654015e-007	2.654015e-007	2.654015e-007	8.845200e-002	3.110502e+000	9.066107e-001	2.282833e-001
8.905332369184017e-003	2.654015e-007	2.654015e-007	2.654015e-007	2.654015e-007	8.855424e-002	3.110246e+000	9.051607e-001	2.278634e-001
8.906880526924590e-003	2.654015e-007	2.654015e-007	2.654015e-007	2.654015e-007	8.875996e-002	3.109447e+000	9.022708e-001	2.270275e-001
8.909976842405734e-003	2.654015e-007	2.654015e-007	2.654015e-007	2.654015e-007	8.917479e-002	3.106613e+000	8.965181e-001	2.253664e-001
8.916169473368022e-003	2.654015e-007	2.654015e-007	2.654015e-007	2.654015e-007	9.001878e-002	3.097497e+000	8.851231e-001	2.220878e-001
8.928554735292598e-003	2.654015e-007	2.654015e-007	2.654015e-007	2.654015e-007	9.176217e-002	3.072720e+000	8.627371e-001	2.156871e-001
8.949614489769209e-003	2.654015e-007	2.654015e-007	2.654015e-007	2.654015e-007	9.490767e-002	3.020750e+000	8.258595e-001	2.052534e-001
8.984863208859044e-003	2.654015e-007	2.654015e-007	2.654015e-007	2.654015e-007	1.007767e-001	2.918942e+000	7.673966e-001	1.889841e-001
9.042221152212756e-003	2.654015e-007	2.654015e-007	2.654015e-007	2.654015e-007	1.126673e-001	2.735466e+000	6.806335e-001	1.654204e-001
9.137568840131517e-003	2.654015e-007	2.654015e-007	2.654015e-007	2.654015e-007	1.368791e-001	2.416651e+000	5.491042e-001	1.305288e-001
9.145939798473531e-003	2.654015e-007	2.654015e-007	2.654015e-007	2.654015e-007	1.394762e-001	2.388452e+000	5.385324e-001	1.277816e-001
9.162681715157559e-003	2.654015e-007	2.654015e-007	2.654015e-007	2.654015e-007	1.457289e-001	2.332344e+000	5.189796e-001	1.227885e-001
9.196165548525615e-003	2.654015e-007	2.654015e-007	2.654015e-007	2.654015e-007	1.611956e-001	2.221503e+000	4.818487e-001	1.133901e-001
9.244854286567796e-003	2.654015e-007	2.654015e-007	2.654015e-007	2.654015e-007	1.908210e-001	2.062948e+000	4.311100e-001	1.006792e-001
9.267877676799366e-003	2.654015e-007	2.654015e-007	2.654015e-007	2.654015e-007	2.095881e-001	1.989234e+000	4.084855e-001	9.506454e-002
9.273633524357259e-003	2.654015e-007	2.654015e-007	2.654015e-007	2.654015e-007	2.162205e-001	1.971084e+000	4.030969e-001	9.373713e-002
9.285145219473044e-003	2.654015e-007	2.654015e-007	2.654015e-007	2.654015e-007	2.329946e-001	1.935055e+000	3.925530e-001	9.114796e-002
9.286831681619605e-003	2.654015e-007	2.654015e-007	2.654015e-007	2.654015e-007	2.363997e-001	1.929798e+000	3.910254e-001	9.077340e-002
9.290204605912730e-003	2.654015e-007	2.654015e-007	2.654015e-007	2.654015e-007	2.461821e-001	1.919331e+000	3.880075e-001	9.003468e-002
9.296950454498978e-003	2.654015e-007	2.654015e-007	2.654015e-007	2.654015e-007	2.718041e-001	1.898499e+000	3.820502e-001	8.857893e-002
9.310442151671474e-003	2.654015e-007	2.654015e-007	2.654015e-007	2.654015e-007	3.349082e-001	1.857140e+000	3.703606e-001	8.572938e-002
9.322674626649243e-003	2.654015e-007	2.654015e-007	2.654015e-007	2.654015e-007	4.042519e-001	1.820092e+000	3.600780e-001	8.323216e-002
9.347139576604777e-003	2.654015e-007	2.654015e-007	2.654015e-007	2.654015e-007	5.707840e-001	1.747464e+000	3.404669e-001	7.849589e-002
9.386068207967762e-003	2.654015e-007	2.654015e-007	2.654015e-007	2.654015e-007	8.718057e-001	1.635234e+000	3.112310e-001	7.148524e-002
9.432058346898253e-003	2.654015e-007	2.654015e-007	2.654015e-007	2.654015e-007	1.246381e+000	1.508202e+000	2.796332e-001	6.397622e-002
9.486697433074891e-003	2.654015e-007	2.654015e-007	2.654015e-007	2.654015e-007	1.668995e+000	1.366050e+000	2.461635e-001	5.610548e-002
9.556031675890709e-003	2.654015e-007	2.654015e-007	2.654015e-007	2.654015e-007	2.115479e+000	1.200653e+000	2.096073e-001	4.761002e-002
9.658778005694830e-003	2.654015e-007	2.654015e-007	2.654015e-007	2.654015e-007	2.595816e+000	9.826622e-001	1.646273e-001	3.729047e-002
9.763774803392158e-003	2.654015e-007	2.654015e-007	2.654015e-007	2.654015e-007	2.899838e+000	7.915935e-001	1.278773e-001	2.897246e-002
9.878477834711723e-003	2.654015e-007	2.654015e-007	2.654015e-007	2.654015e-007	3.086767e+000	6.118268e-001	9.532667e-002	2.169564e-002
9.894585072418386e-003	2.654015e-007	2.654015e-007	2.654015e-007	2.654015e-007	3.100499e+000	5.896327e-001	9.147123e-002	2.084172e-002
9.926799547831712e-003	2.654015e-007	2.654015e-007	2.654015e-007	2.654015e-007	3.113569e+000	5.488936e-001	8.457298e-002	1.932330e-002
9.934853166685043e-003	2.654015e-007	2.654015e-007	2.654015e-007	2.654015e-007	3.114761e+000	5.390517e-001	8.291920e-002	1.896003e-002
9.950960404391706e-003	2.654015e-007	2.654015e-007	2.654015e-007	2.654015e-007	3.106856e+000	5.202019e-001	7.978131e-002	1.827264e-002
9.983174879805032e-003	2.654015e-007	2.654015e-007	2.654015e-007	2.654015e-007	3.058099e+000	4.842680e-001	7.385463e-002	1.697809e-002
1.002608628317985e-002	2.654015e-007	2.654015e-007	2.654015e-007	2.654015e-007	2.950845e+000	4.395446e-001	6.656913e-002	1.539343e-002
1.006914452217000e-002	2.654015e-007	2.654015e-007	2.654015e-007	2.654015e-007	2.818391e+000	3.982680e-001	5.993999e-002	1.395927e-002
1.011263309878768e-002	2.654015e-007	2.654015e-007	2.654015e-007	2.654015e-007	2.674457e+000	3.610082e-001	5.405350e-002	1.269535e-002
1.019961025202303e-002	2.654015e-007	2.654015e-007	2.654015e-007	2.654015e-007	2.382422e+000	2.960136e-001	4.396455e-002	1.055085e-002
1.028352874894368e-002	2.654015e-007	2.654015e-007	2.654015e-007	2.654015e-007	2.106741e+000	2.425246e-001	3.580826e-002	8.840335e-003
1.036120173642493e-002	2.654015e-007	2.654015e-007	2.654015e-007	2.654015e-007	1.863526e+000	2.015367e-001	2.967557e-002	7.578886e-003
1.044679915322936e-002	2.654015e-007	2.654015e-007	2.654015e-007	2.654015e-007	1.613151e+000	1.642081e-001	2.418103e-002	6.476076e-003
1.053092139072598e-002	2.654015e-007	2.654015e-007	2.654015e-007	2.654015e-007	1.388207e+000	1.341715e-001	1.982535e-002	5.630481e-003
1.062941905104793e-002	2.654015e-007	2.654015e-007	2.654015e-007	2.654015e-007	1.153454e+000	1.059199e-001	1.579031e-002	4.884860e-003
1.073471626988783e-002	2.654015e-007	2.654015e-007	2.654015e-007	2.654015e-007	9.373578e-001	8.229545e-002	1.247163e-002	4.318832e-003
1.086734186081048e-002	2.654015e-007	2.654015e-007	2.654015e-007	2.654015e-007	7.141047e-001	6.003433e-002	9.410490e-003	3.870841e-003
1.102457461389982e-002	2.654015e-007	2.654015e-007	2.654015e-007	2.654015e-007	5.083706e-001	4.114839e-002	6.891206e-003	3.611590e-003
1.119419405621795e-002	2.654015e-007	2.654015e-007	2.654015e-007	2.654015e-007	3.446762e-001	2.718706e-002	5.117782e-003	3.576065e-003
1.135143156942266e-002	2.654015e-007	2.654015e-007	2.654015e-007	2.654015e-007	2.370339e-001	1.854871e-002	4.109154e-003	3.723163e-003
1.150919834678312e-002	2.654015e-007	2.654015e-007	2.654015e-007	2.654015e-007	1.619513e-001	1.280997e-002	3.534457e-003	4.013680e-003
