time,VIN,VOUT
0.0,0.0,5.708595626694708e-09
9.999999717180685e-10,1.256637025895794e-08,5.708595675239798e-09
1.999999943436137e-09,2.513274051791588e-08,5.708595648479112e-09
3.999999886872274e-09,5.026548103583174e-08,5.708595701998228e-09
7.999999773744548e-09,1.005309620716634e-07,5.708595665764003e-09
1.59999995474891e-08,2.010619241433257e-07,5.708595660810007e-09
3.199999909497819e-08,4.021238482866432e-07,5.708595665094353e-09
6.399999818995639e-08,8.042476965732215e-07,5.708595625068475e-09
1.279999963799128e-07,1.608495393145923e-06,5.708595598733881e-09
2.559999927598256e-07,3.216990786287684e-06,5.708595593345156e-09
5.119999855196511e-07,6.433981572542075e-06,5.708595633871388e-09
1.023999971039302e-06,1.286796314481781e-05,5.708595618541846e-09
2.047999942078604e-06,2.573592628750488e-05,5.708596259838284e-09
4.095999884157209e-06,5.147185255796389e-05,5.708609002347416e-09
8.191999768314417e-06,0.0001029437049795607,5.708674063051005e-09
1.638399953662884e-05,0.0002058874088681852,5.708813720190157e-09
3.276799907325767e-05,0.0004117748090088802,5.709080008557967e-09
6.553599814651534e-05,0.0008235495481978412,5.709623091261892e-09
0.0001310719962930307,0.0016470985378364,5.710701307210406e-09
0.0002621439925860614,0.003294192607200815,5.712880761479432e-09
0.0004201878601383593,0.005280211841900275,5.715493929580593e-09
0.0005810925061858332,0.00730215889869329,5.718172183410306e-09
0.0007383662343353011,0.00927845061487389,5.720779164242706e-09
0.0009148246086114689,0.01149577186420518,5.723724064722037e-09
0.00114600391814675,0.01440061218701192,5.727571803123156e-09
0.001550477316774373,0.0194826398663309,5.734349546143784e-09
0.002048648757766047,0.02574123596210094,5.74274447843626e-09
0.002516255599156987,0.03161493150809187,5.750721555421905e-09
0.003090519731943163,0.03882685431227302,5.760678010300311e-09
0.003796172304441048,0.04768601692272772,5.773319540059909e-09
0.004772734804441048,0.05994000412787179,5.791934810729339e-09
0.005749297304441048,0.07218496458887086,5.812456714259989e-09
0.006725859804441048,0.08441905425972002,5.835578570989674e-09
0.007702422304441048,0.09664043073151535,5.862063460221707e-09
0.008678984804441047,0.108847253509914,5.892666566898352e-09
0.009655547304441047,0.1210376842923056,5.928312321703332e-09
0.01063210980444105,0.1332098872446545,5.970125557618738e-09
0.01160867230444105,0.1453620292779688,6.019786518642729e-09
0.01258523480444105,0.1574922803243574,6.079856463403061e-09
0.01356179730444105,0.1695988136126312,6.154720271780597e-09
0.01453835980444105,0.1816798059434085,6.25226896582424e-09
0.01541604459641695,0.1925142955930571,6.371543840452565e-09
0.01614832421727592,0.201535981525791,6.510023211477162e-09
0.01675625572888205,0.2090127665498439,6.671491883519198e-09
0.01725662922914596,0.2151575920477813,6.860020858344874e-09
0.01766912204351614,0.2202168145623471,7.08234228292041e-09
0.01800853514600164,0.224375283326262,7.347324548678133e-09
0.01828261462073133,0.2277303131231735,7.66397088459591e-09
0.01850030652581372,0.2303931749695572,8.040483578687855e-09
0.01866455966142756,0.2324012202658649,8.467204757489977e-09
0.01868958717892547,0.2327071026802634,8.554274176282986e-09
0.01873964221392128,0.233318798425232,8.742248697340899e-09
0.01883975228391291,0.2345419127328352,9.243080615312823e-09
0.01894766529642717,0.2358599452416439,1.018628531764048e-08
0.01899222434733905,0.2364040560743149,1.083768002277422e-08
0.01902187631747157,0.2367660953925212,1.149002241542687e-08
0.0190292893100047,0.2368566000875472,1.171140717423245e-08
0.01904411529507096,0.2370376033106706,1.225108995674485e-08
0.01905801276593135,0.2372072632856674,1.33013854449269e-08
0.01907266459883697,0.2373861246590627,1.567480401371729e-08
0.01909321156976873,0.2376369370201,2.152529971857321e-08
0.01911504540278627,0.2379034404614536,3.153450416066742e-08
0.01914151934585565,0.2382265569923017,4.994913579452054e-08
0.01916784287816863,0.2385478116063511,7.468541727202261e-08
0.01920059546422308,0.2389474904881332,1.123758692708832e-07
0.01923918630922071,0.23941836153019,1.632325362632375e-07
0.01928231655114297,0.2399445539598243,2.362419221817355e-07
0.01932840496563337,0.2405067584275398,3.808952743801878e-07
0.01938041600151254,0.2411411124427555,7.537534088153086e-07
0.01943726087887673,0.241834304711638,1.603103982735813e-06
0.01949043966174504,0.2424826792446879,2.74851390914969e-06
0.01956155137100986,0.2433495290902602,4.621713492043538e-06
0.01963194900606069,0.2442074829829664,8.14816390353076e-06
0.01970025188407257,0.2450397248755679,1.533841646386261e-05
0.01970766829361825,0.2451300798582562,1.640593120922947e-05
0.01972250111270962,0.2453107834354351,1.861597924061877e-05
0.01975216675089235,0.2456721650150286,2.352006603633811e-05
0.0197897423001245,0.246129854721325,3.046848681906251e-05
0.01982576664894011,0.2465685984760648,3.775697998567849e-05
0.01989781534657132,0.2474459343054785,5.361432410100711e-05
0.01997298496015759,0.2483610572578894,7.148413933157184e-05
0.02004797999568724,0.2492738340411069,9.018779774747551e-05
0.02012842782731144,0.2502527315485971,0.0001108657873923759
0.02021428531039299,0.2512971720956008,0.0001332897740468838
0.02030201967635203,0.2523641423822846,0.0001562983361676961
0.02039796777388896,0.2535306516969915,0.0001813453760913343
0.02050768869887538,0.2548641552491134,0.0002096779941305407
0.0206388900523232,0.256458086903114,0.0002430879065665755
0.02080119975873887,0.2584289808379325,0.0002838892503541794
0.02101250684862314,0.260993227943965,0.0003364182595946949
0.02118828453729828,0.2631249184263072,0.0003796303608941483
0.02134388491207192,0.2650108437623124,0.0004175070125198676
0.02151992316272113,0.26714326059268,0.0004599051367099805
0.02167961007117216,0.2690764770072775,0.0004979471800670174
0.02184287547614038,0.2710518954811731,0.0005364040881396118
0.02199647789073906,0.2729093557798751,0.0005721824299724786
0.02215552851903976,0.2748316278016478,0.0006087909632836608
0.02230948563969583,0.2766912945025353,0.0006438057112847811
0.02246783939604911,0.278602988189444,0.0006793590204685538
0.02262317535885172,0.2804771783372669,0.0007137853699786647
0.02278293963137633,0.2824036828840423,0.0007486984562755978
0.02294259038448997,0.2843276815005016,0.0007830914766564435
0.02310879527944357,0.2863294500694425,0.0008183374720753142
0.02327983254844632,0.2883881155385924,0.0008540180634251519
0.02346355588209114,0.2905979906251397,0.0008916396725799815
0.02366214269698373,0.2929849054183324,0.0009314836030510061
0.0238875442736054,0.2956919087264112,0.0009756204235502683
0.02414974259355755,0.2988378432201506,0.00102548851743264
0.02447955290972466,0.302790395674407,0.001085857331681259
0.02473752930489126,0.305878445654948,0.001131201767705291
0.02490170287224739,0.3078419776426097,0.001159162260348484
0.02492418160713173,0.3081107237245513,0.001162937500785898
0.02496913907690041,0.3086481421119827,0.001170447690196359
0.02505905401643777,0.3097226831807307,0.001185304125034016
0.02514271560068858,0.310722137556717,0.001198936135243792
0.02518142309419608,0.3111844364449826,0.001205178469424113
0.02519109996757296,0.311299999667352,0.001206732920644909
0.02521045371432671,0.3115311123004919,0.001209835135694349
0.02521529215101515,0.3115888875801144,0.001210608695291754
0.02522496902439203,0.3117044346834696,0.001212154862466814
0.02523974440869402,0.311880851873195,0.001214511800839173
0.02525844987480335,0.3121041785777473,0.001217489267886468
0.02527852302192086,0.3123438150001932,0.00122067690002886
0.02530572153860659,0.3126684835067944,0.001224984603123279
0.0253309461423397,0.3129695567835475,0.00122896789698726
0.02536340824700532,0.313356968413688,0.001234075609316591
0.02539950079442355,0.3137876455185256,0.001239726586486798
0.0254455616689577,0.3143371766907788,0.001246899912389187
0.0254899405741436,0.3148665414458783,0.001253810891255309
0.02554361606141026,0.3155066677307549,0.001262283879636887
0.02559877229036581,0.3161643035923428,0.001271336113289304
0.02565264632529217,0.3168065050354483,0.00128046411554423
0.02571866838840291,0.3175933181127904,0.00129185039041088
0.02578751348788938,0.3184135416793822,0.001304970010405385
0.02586587889132853,0.3193469005037991,0.00132434332749447
0.02587597300847667,0.3194671024044927,0.001327296060234884
0.02589616124277294,0.3197074907832561,0.00133338902142033
0.02593653771136548,0.3201882057961389,0.001346584434454978
0.02599038893564977,0.3208292205355973,0.001365718698859271
0.02604409760738387,0.3214683920713525,0.001386197014905294
0.02613517474590796,0.3225519401786963,0.001423195141122992
0.02621818380768775,0.3235391340865894,0.001458784005739507
0.02629609380181124,0.3244653665509426,0.001493183156394562
0.02638110603435785,0.3254756790707983,0.001531303852649191
0.02646726092591504,0.3264991923367454,0.001570068798010877
0.02656689583974429,0.3276823699129134,0.00161466522893346
0.02667531831413755,0.3289693172129453,0.001662537017381508
0.02680988151864178,0.3305656988069328,0.001720840097895505
0.02697132434843188,0.332479717352299,0.001789268187763198
0.02718847715323797,0.3350520572718291,0.001879009171908517
0.0273657562637935,0.3371502140359894,0.001950328776133039
0.02752043730347902,0.3389795486389818,0.002011104150959371
0.0276948747176607,0.3410409949817991,0.002077989677845395
0.02785431050822631,0.3429237237292721,0.002137566934347932
0.02801727106723042,0.3448466528129639,0.002196908328740942
0.02817106528336845,0.346660093086514,0.002251447488881297
0.02832995562686603,0.3485322635945584,0.002306291036549524
0.0284840269949087,0.3503463263074363,0.002357985611917276
0.0286423128276891,0.3522086431182975,0.002409567438853448
0.02879783634283962,0.3540371026142255,0.002458711965418359
0.02895770520881811,0.3559152400183958,0.002507643003715896
0.02911769984873176,0.3577934168541751,0.002554969004323914
0.02928427490818138,0.3597473043482133,0.002602499765958914
0.02945597316208044,0.3617596358941632,0.002649595142794716
0.02964050594783118,0.3639205123357027,0.002698070941973289
0.02984026091826873,0.3662574342763484,0.002748001049227151
0.03006704331399215,0.3689077503892402,0.002801485779140382
0.03033061359863327,0.3719842259979221,0.00285930792185873
0.03066150205560983,0.3758406793153004,0.002925287467984443
0.03108724901010854,0.3807931248441529,0.002999259355383616
0.03149437506297353,0.3855187721515676,0.003058502533395744
0.03181411222675742,0.3892229995502085,0.003097157386249063
0.03203328685657071,0.3917585609452606,0.003119687100566411
0.03206589303116178,0.3921355179070928,0.00312275068932191
0.03213110538034392,0.3928892342630448,0.00312869319701819
0.03226153007870819,0.3943958749327736,0.003139711697710485
0.03241502251670084,0.3961676322599133,0.003151241095718928
0.03243271716765625,0.3963717863119048,0.003152464561220426
0.03246810646956708,0.3967800356125115,0.003154861245602781
0.03251167203551742,0.3972824981359076,0.003157694163265649
0.03252017117580297,0.3973805089127984,0.003158232248343421
0.03253716945637407,0.3975765168667574,0.003159296061477057
0.03255103069733572,0.3977363380456059,0.003160147767249159
0.0325528560158061,0.3977573832094611,0.003160259077016965
0.03255650665274688,0.3977994729093385,0.003160481263014809
0.03256380792662842,0.3978836497974509,0.003160922632721963
0.03257260367384548,0.3979850521232484,0.003161449560109162
0.03258743273073419,0.3981559988302101,0.003162331119092594
0.03260289634807767,0.3983342459099078,0.003163324774262038
0.03263382358276464,0.3986906949382378,0.003167014167988286
0.03267459119777365,0.3991604663568151,0.003181170882809669
0.03272364845447632,0.3997256216852193,0.003226215509633249
0.03278121445935351,0.4003886067873597,0.003337475006767325
0.03286058897462661,0.4013024158311965,0.003606114157264627
0.03296822969113304,0.4025410050381642,0.004107400972036754
0.03308315134782638,0.4038625608374517,0.004638837216686474
0.03319580764376593,0.4051572483184448,0.005053548462851012
0.03321559086628451,0.4053845206265083,0.005115416837371364
0.03325515731132166,0.4058389900659179,0.005230113676318172
0.03329879761973152,0.4063401364918416,0.005340647876026631
0.03333881756788425,0.4067996008526301,0.005430353050128764
0.03338494478068513,0.4073290543651664,0.00552200930080923
0.0334771992062869,0.4083875506295583,0.005681207054707327
0.03356330949322896,0.4093750558891461,0.005809755654537836
0.03364118626113739,0.4102677271129446,0.005916093004805416
0.03372626059950933,0.4112424521999214,0.006023744256280692
0.03381132850403065,0.4122166336071483,0.006125816181119086
0.03391072838783131,0.4133543452365102,0.006239783630393767
0.03401762286135592,0.4145771187188576,0.006358672126213613
0.03412755315841951,0.4158338389531541,0.006478516309756596
0.03414415821289685,0.4160235985674751,0.006496564743216047
0.03417736832185155,0.4164030634453624,0.006532559286616162
0.03418567084909022,0.4164979183357366,0.006541538469452483
0.03420227590356757,0.4166876145143398,0.006559496791463064
0.0342064271671869,0.4167350357244576,0.006563984546981875
0.03421472969442557,0.4168298747423501,0.006572957340727226
0.03423133474890292,0.4170195391651499,0.006590890538149758
0.03423442168734177,0.417054796451808,0.006594222689024424
0.03424059556421947,0.4171253091423327,0.006600885975535828
0.03425294331797486,0.4172663269907294,0.006614206577328819
0.03426872131249267,0.4174465053736455,0.006631216956412902
0.03428593799472751,0.4176430942709055,0.00664976477698018
0.03430942330861007,0.4179112300922015,0.006675043668988798
0.03433492076766687,0.4182022977051937,0.006702459778432248
0.0343641101010296,0.41853545739704,0.006733807873948161
0.03439802059967564,0.4189224325655309,0.006770172835652389
0.03444090132050689,0.4194116639566737,0.00681607300535792
0.03448586337012391,0.4199245106877986,0.006864119986640604
0.03453654218344045,0.4205024033315566,0.006918259829149273
0.03459107159596685,0.4211240140384114,0.006976679177104005
0.03464748889312008,0.4217669376488792,0.007037413901764829
0.03470418639553653,0.4224128408660777,0.007098549630226415
0.03477440496073031,0.4232124800191356,0.007174898985632849
0.03484464007705198,0.4240119780173286,0.007254215711709144
0.03491634906084563,0.424827912521384,0.007340565941712547
0.0349880813889789,0.4256437675096087,0.007431949867485022
0.03503501799726923,0.4261774186865014,0.007493869388489661
0.03509036082932785,0.4268064549075737,0.007568610746124136
0.03517160097553132,0.4277294704757583,0.007681217889265932
0.03525480070173162,0.4286742878914221,0.007799280312707244
0.03534436849442556,0.4296908973836424,0.007928312203902657
0.0354260581459917,0.4306176140458209,0.008046881156449389
0.03551941549310721,0.4316761375391745,0.008182546744362898
0.03561636596370466,0.4327747724447236,0.008322922780430944
0.03573779414212932,0.4341498804549544,0.008497350504741525
0.03587616094975468,0.4357155768067446,0.00869395433698315
0.03602988189491379,0.4374534687624881,0.008909787357917481
0.03619554501741438,0.4393245452882237,0.009139569303304602
0.03635483940684114,0.4411218949028803,0.009357699805843186
0.03651944688067136,0.4429773360024149,0.009580202569735043
0.03668621968534792,0.444855251526584,0.009802555346774553
0.03685253053650935,0.4467260195845451,0.01002120879907706
0.0370114316506018,0.4485116156791593,0.01022718405131591
0.03716929056527664,0.4502837296625979,0.01042897405711449
0.03732487295629216,0.4520285537970927,0.01062503356600205
0.03748169143660901,0.4537854919007809,0.01081982978231824
0.03763766332360091,0.4555311970943244,0.01101071110627405
0.03779513817674484,0.4572919487721658,0.01120055049034904
0.037953219699281,0.4590576825951687,0.01138815714648704
0.03811448444865744,0.4608571056435323,0.01157649961202092
0.03827942090340551,0.4626955404738544,0.01176590054106074
0.03845168429126471,0.4646135214379516,0.01196024797950494
0.03863414314310642,0.4666426442332579,0.0121621807483517
0.03883331334111034,0.4688548128189303,0.01237802799820293
0.03905644962338198,0.471329681865424,0.01261410824581139
0.03931625638599829,0.4742066030795379,0.01288136421344967
0.03949018530605026,0.4761297494971514,0.01305566523943958
0.03951488546777954,0.4764026769949881,0.01308011010272504
0.03956428579123811,0.4769483942704504,0.01312880091508562
0.03966308643815523,0.4780392772045614,0.01322526979908941
0.03973918945724994,0.4788790475711827,0.01329877090821239
0.03975033003648645,0.4790019432595962,0.0133094650251914
0.03977261119495945,0.4792477064700493,0.01333082000564817
0.0397781814845777,0.4793091414029119,0.01333614732357235
0.03978932206381421,0.4794320042228292,0.01334679413041765
0.0398018042112063,0.4795696512377587,0.01335870424162729
0.03981473387608708,0.4797122208153177,0.01337102311251834
0.03983353270284377,0.4799194843984479,0.01338904262579397
0.03985367843660852,0.4801415683685225,0.01340909165717276
0.03989396990413804,0.4805856439785488,0.01345723602569512
0.03993714940319771,0.4810614134899281,0.01353212886580616
0.03999436672276102,0.4816916392766371,0.01369479226605999
0.04006059010074775,0.4824207522515861,0.01399749293096895
0.04014540069562779,0.4833540207037504,0.01454944314545765
0.0402455062858104,0.4844548910253595,0.01529984296282609
0.04035900174565276,0.4857020835632209,0.01606702322723892
0.04037436407800101,0.4858708231468488,0.01615847604014664
0.04040508874269751,0.4862082479857712,0.01633318480933941
0.04041276990887164,0.4862925928725144,0.0163746334130934
0.04042813224121989,0.4864612690529146,0.01645614771318819
0.04043197282430695,0.4865034352655487,0.01647601865835593
0.04043965399048108,0.4865877642911706,0.01651542623319623
0.04045501632282933,0.4867564087410779,0.01659222702596998
0.04045885690591639,0.4867985670193702,0.01661098207173282
0.04045981705168816,0.4868091064117799,0.01661566292176551
0.04046173734323168,0.4868301849839924,0.01662500394630832
0.04046557792631875,0.4868723412779474,0.01664353400513422
0.04047325909249287,0.4869566504636329,0.01667998833379887
0.04048862142484112,0.4871252552233574,0.01675057367289521
0.04051934608953763,0.487462410274228,0.01688288962874823
0.04056636180469291,0.487978193383165,0.01706605318503138
0.04064054632690339,0.4887916837815792,0.0173204874868166
0.04072008920235924,0.4896634607121698,0.01756236920795607
0.04079392657095481,0.4904722683798189,0.01776903909931142
0.04087270331785516,0.4913347159380961,0.01797575863811255
0.04095815987247571,0.4922697495119275,0.01818904347829644
0.04104543295802852,0.4932240729558104,0.01839842236790097
0.04114088988774614,0.4942672066842723,0.01862027352170543
0.04124990406016756,0.4954576211964376,0.01886757725697952
0.04138045547832975,0.4968819947427914,0.01915857612219316
0.04154224305064532,0.4986453125233227,0.01951487437102627
0.04175339252924813,0.5009435227676806,0.01997360791294584
0.04192942313968923,0.5028567943207654,0.02035065310691601
0.04208530616455268,0.5045490283824882,0.02068026246303397
0.04226245440191499,0.506469762605909,0.02105001575003564
0.04242227088828841,0.5082004236280885,0.02137900672254041
0.04258587170236605,0.5099699421602739,0.02171133324335683
0.04273940756713663,0.5116286369874092,0.02201895183469465
0.04289871537277265,0.5133476744706259,0.02233382362669352
0.04305273278658262,0.5150076691809115,0.02263391317019012
0.04321143062327881,0.5167160912618064,0.02293871838069864
0.0433670678383784,0.5183895690830574,0.02323316372715299
0.04352754607873799,0.5201130232221614,0.02353215682511878
0.04368819216870533,0.5218361614668597,0.02382664056305151
0.04385623680304578,0.5236363827977207,0.02412955074837919
0.04403009075797498,0.5254963803272417,0.02443727124685407
0.04405119355200677,0.5257219805925885,0.02447422157008278
0.04409339914007034,0.5261730701958032,0.02454789701036386
0.0441403100018115,0.5266742756636789,0.02462936871826918
0.04415034301032794,0.5267814466750481,0.0246467377070958
0.0441704090273608,0.5269957635752633,0.02468142561478586
0.04417542553161901,0.527049337565216,0.02469008197125511
