time,V(spikes1),V(spikes2),V(spikes3),V(spikes4),V(spikes5),V(spikes6),V(spikes7),V(spikes8)
0.000000000000000e+000,2.654015e-007,2.654015e-007,2.654015e-007,2.654015e-007,2.654015e-007,2.654015e-007,2.654015e-007,2.654015e-007
1.170285681187774e-006,2.654015e-007,2.654015e-007,2.654015e-007,2.654015e-007,2.654015e-007,2.654015e-007,2.654015e-007,2.654015e-007
2.340571362375549e-006,2.654015e-007,2.654015e-007,2.654015e-007,2.654015e-007,2.654015e-007,2.654015e-007,2.654015e-007,2.654015e-007
3.510857043563323e-006,2.654015e-007,2.654015e-007,2.654015e-007,2.654015e-007,2.654015e-007,2.654015e-007,2.654015e-007,2.654015e-007
4.681142724751098e-006,2.654015e-007,2.654015e-007,2.654015e-007,2.654015e-007,2.654015e-007,2.654015e-007,2.654015e-007,2.654015e-007
5.851428405938872e-006,2.654015e-007,2.654015e-007,2.654015e-007,2.654015e-007,2.654016e-007,2.654016e-007,2.654016e-007,2.654016e-007
7.021714087126647e-006,2.654015e-007,2.654015e-007,2.654015e-007,2.654015e-007,2.654016e-007,2.654016e-007,2.654016e-007,2.654016e-007
8.191999768314418e-006,2.654015e-007,2.654015e-007,2.654015e-007,2.654015e-007,2.654017e-007,2.654017e-007,2.654017e-007,2.654017e-007
1.638399953662884e-005,2.654015e-007,2.654015e-007,2.654015e-007,2.654015e-007,2.654073e-007,2.654074e-007,2.654074e-007,2.654074e-007
3.276799907325767e-005,2.654015e-007,2.654015e-007,2.654015e-007,2.654015e-007,2.655706e-007,2.655713e-007,2.655721e-007,2.655729e-007
6.553599814651534e-005,2.654015e-007,2.654015e-007,2.654015e-007,2.654015e-007,2.699263e-007,2.699659e-007,2.700059e-007,2.700463e-007
1.310719962930307e-004,2.654015e-007,2.654015e-007,2.654015e-007,2.654015e-007,3.764379e-007,3.785333e-007,3.806757e-007,3.828664e-007
2.621439925860614e-004,2.654015e-007,2.654015e-007,2.654015e-007,2.654015e-007,1.295384e-006,1.321759e-006,1.348934e-006,1.376938e-006
3.907262174754586e-004,2.654015e-007,2.654015e-007,2.654015e-007,2.654015e-007,3.929383e-006,4.046094e-006,4.167179e-006,4.292823e-006
5.098740030852270e-004,2.654015e-007,2.654015e-007,2.654015e-007,2.654015e-007,9.290635e-006,9.636023e-006,9.996924e-006,1.037413e-005
6.229968638886377e-004,2.654015e-007,2.654015e-007,2.654015e-007,2.654015e-007,1.839359e-005,1.921331e-005,2.007673e-005,2.098652e-005
7.437874254242972e-004,2.654015e-007,2.654015e-007,2.654015e-007,2.654015e-007,3.383301e-005,3.563124e-005,3.754422e-005,3.958042e-005
8.930371187027056e-004,2.654015e-007,2.654015e-007,2.654015e-007,2.654015e-007,6.244305e-005,6.647850e-005,7.083139e-005,7.553121e-005
1.100324197136473e-003,2.654015e-007,2.654015e-007,2.654015e-007,2.654015e-007,1.202014e-004,1.299778e-004,1.407459e-004,1.526275e-004
1.397794664689512e-003,2.654015e-007,2.654015e-007,2.654015e-007,2.654015e-007,2.378813e-004,2.634771e-004,2.926875e-004,3.261710e-004
1.891982313911991e-003,2.654015e-007,2.654015e-007,2.654015e-007,2.654015e-007,4.941752e-004,5.664454e-004,6.530879e-004,7.579181e-004
2.416691424045556e-003,2.654015e-007,2.654015e-007,2.654015e-007,2.654015e-007,8.161389e-004,9.696958e-004,1.164446e-003,1.415892e-003
3.024804515756496e-003,2.654015e-007,2.654015e-007,2.654015e-007,2.654015e-007,1.217981e-003,1.515582e-003,1.924440e-003,2.507390e-003
3.743220360746382e-003,2.654015e-007,2.654015e-007,2.654015e-007,2.654015e-007,1.692954e-003,2.232025e-003,3.056980e-003,4.399338e-003
4.450661498286530e-003,2.654015e-007,2.654015e-007,2.654015e-007,2.654015e-007,2.143712e-003,3.006862e-003,4.506276e-003,7.303177e-003
5.137649533893589e-003,2.654015e-007,2.654015e-007,2.654015e-007,2.654015e-007,2.558361e-003,3.839889e-003,6.407480e-003,1.189643e-002
5.754520203212152e-003,2.654015e-007,2.654015e-007,2.654015e-007,2.654015e-007,2.911395e-003,4.675623e-003,8.716513e-003,1.854807e-002
6.192744843348075e-003,2.654015e-007,2.654015e-007,2.654015e-007,2.654015e-007,3.151981e-003,5.342312e-003,1.088319e-002,2.600138e-002
6.520680289199369e-003,2.654015e-007,2.654015e-007,2.654015e-007,2.654015e-007,3.326943e-003,5.899678e-003,1.294474e-002,3.454676e-002
6.789678000860967e-003,2.654015e-007,2.654015e-007,2.654015e-007,2.654015e-007,3.467825e-003,6.403742e-003,1.501232e-002,4.504183e-002
7.015795133778176e-003,2.654015e-007,2.654015e-007,2.654015e-007,2.654015e-007,3.584755e-003,6.865116e-003,1.708082e-002,5.824381e-002
7.203379761855803e-003,2.654015e-007,2.654015e-007,2.654015e-007,2.654015e-007,3.680882e-003,7.277080e-003,1.907997e-002,7.480519e-002
7.353034671893371e-003,2.654015e-007,2.654015e-007,2.654015e-007,2.654015e-007,3.757080e-003,7.626450e-003,2.089584e-002,9.479128e-002
7.460703133918442e-003,2.654015e-007,2.654015e-007,2.654015e-007,2.654015e-007,3.811681e-003,7.888795e-003,2.232845e-002,1.146347e-001
7.476936316205634e-003,2.654015e-007,2.654015e-007,2.654015e-007,2.654015e-007,3.819893e-003,7.929524e-003,2.255889e-002,1.185454e-001
7.509402680780016e-003,2.654015e-007,2.654015e-007,2.654015e-007,2.654015e-007,3.836290e-003,8.012712e-003,2.304213e-002,1.285813e-001
7.574335409928781e-003,2.654015e-007,2.654015e-007,2.654015e-007,2.654015e-007,3.869057e-003,8.181034e-003,2.403497e-002,1.524409e-001
7.584168346781581e-003,2.654015e-007,2.654015e-007,2.654015e-007,2.654015e-007,3.874015e-003,8.206849e-003,2.418980e-002,1.568939e-001
7.603834220487180e-003,2.654015e-007,2.654015e-007,2.654015e-007,2.654015e-007,3.883922e-003,8.259150e-003,2.450893e-002,1.685672e-001
7.643165967898379e-003,2.654015e-007,2.654015e-007,2.654015e-007,2.654015e-007,3.903725e-003,8.364640e-003,2.516006e-002,1.991958e-001
7.663041607794077e-003,2.654015e-007,2.654015e-007,2.654015e-007,2.654015e-007,3.913728e-003,8.418383e-003,2.549550e-002,2.202437e-001
7.666244771278113e-003,2.654015e-007,2.654015e-007,2.654015e-007,2.654015e-007,3.915339e-003,8.427104e-003,2.555045e-002,2.256977e-001
7.672651098246186e-003,2.654015e-007,2.654015e-007,2.654015e-007,2.654015e-007,3.918561e-003,8.444619e-003,2.566145e-002,2.436668e-001
7.685463752182333e-003,2.654015e-007,2.654015e-007,2.654015e-007,2.654015e-007,3.925003e-003,8.479780e-003,2.588544e-002,2.953601e-001
7.701404003103525e-003,2.654015e-007,2.654015e-007,2.654015e-007,2.654015e-007,3.933016e-003,8.523753e-003,2.616764e-002,3.780220e-001
7.718482901580465e-003,2.654015e-007,2.654015e-007,2.654015e-007,2.654015e-007,3.941597e-003,8.571189e-003,2.647505e-002,4.851754e-001
7.740889555177476e-003,2.654015e-007,2.654015e-007,2.654015e-007,2.654015e-007,3.952851e-003,8.633918e-003,2.688624e-002,6.470981e-001
7.764605769982474e-003,2.654015e-007,2.654015e-007,2.654015e-007,2.654015e-007,3.964757e-003,8.700923e-003,2.733131e-002,8.354938e-001
7.792072486121704e-003,2.654015e-007,2.654015e-007,2.654015e-007,2.654015e-007,3.978538e-003,8.779353e-003,2.786047e-002,1.064448e+000
7.823557573508406e-003,2.654015e-007,2.654015e-007,2.654015e-007,2.654015e-007,3.994327e-003,8.870389e-003,2.848632e-002,1.326004e+000
7.864127269332225e-003,2.654015e-007,2.654015e-007,2.654015e-007,2.654015e-007,4.014656e-003,8.989555e-003,2.932557e-002,1.643169e+000
7.918614540851042e-003,2.654015e-007,2.654015e-007,2.654015e-007,2.654015e-007,4.041935e-003,9.153224e-003,3.052020e-002,2.009446e+000
8.008289589213855e-003,2.654015e-007,2.654015e-007,2.654015e-007,2.654015e-007,4.086784e-003,9.430704e-003,3.264765e-002,2.471917e+000
8.107605270948426e-003,2.654015e-007,2.654015e-007,2.654015e-007,2.654015e-007,4.136399e-003,9.749967e-003,3.526444e-002,2.810921e+000
8.224347096236984e-003,2.654015e-007,2.654015e-007,2.654015e-007,2.654015e-007,4.194661e-003,1.014259e-002,3.876182e-002,2.990528e+000
8.340198374469372e-003,2.654015e-007,2.654015e-007,2.654015e-007,2.654015e-007,4.252436e-003,1.055133e-002,4.276441e-002,2.924894e+000
8.448483271593249e-003,2.654015e-007,2.654015e-007,2.654015e-007,2.654015e-007,4.306417e-003,1.095023e-002,4.703280e-002,2.669576e+000
8.501095155598189e-003,2.654015e-007,2.654015e-007,2.654015e-007,2.654015e-007,4.332643e-003,1.115168e-002,4.938268e-002,2.502085e+000
8.570345550754512e-003,2.654015e-007,2.654015e-007,2.654015e-007,2.654015e-007,4.367166e-003,1.142608e-002,5.285782e-002,2.271729e+000
8.641979112924332e-003,2.654015e-007,2.654015e-007,2.654015e-007,2.654015e-007,4.402888e-003,1.171914e-002,5.690123e-002,2.040188e+000
8.723108107217851e-003,2.654015e-007,2.654015e-007,2.654015e-007,2.654015e-007,4.443365e-003,1.206354e-002,6.219073e-002,1.791390e+000
8.814239139407808e-003,2.654015e-007,2.654015e-007,2.654015e-007,2.654015e-007,4.488866e-003,1.246617e-002,6.921874e-002,1.532034e+000
8.904298520240824e-003,2.654015e-007,2.654015e-007,2.654015e-007,2.654015e-007,4.533880e-003,1.288206e-002,7.774427e-002,1.300049e+000
9.004560838751870e-003,2.654015e-007,2.654015e-007,2.654015e-007,2.654015e-007,4.584066e-003,1.336830e-002,9.006074e-002,1.072778e+000
9.116850534404768e-003,2.654015e-007,2.654015e-007,2.654015e-007,2.654015e-007,4.640386e-003,1.394442e-002,1.105598e-001,8.567427e-001
9.254486274270415e-003,2.654015e-007,2.654015e-007,2.654015e-007,2.654015e-007,4.709549e-003,1.468468e-002,1.460054e-001,6.302449e-001
9.270953476440896e-003,2.654015e-007,2.654015e-007,2.654015e-007,2.654015e-007,4.717838e-003,1.477683e-002,1.520241e-001,6.067101e-001
9.303887880781859e-003,2.654015e-007,2.654015e-007,2.654015e-007,2.654015e-007,4.734437e-003,1.496606e-002,1.674276e-001,5.642005e-001
9.322156844188785e-003,2.654015e-007,2.654015e-007,2.654015e-007,2.654015e-007,4.743651e-003,1.507244e-002,1.784028e-001,5.417234e-001
9.358694771002634e-003,2.654015e-007,2.654015e-007,2.654015e-007,2.654015e-007,4.762092e-003,1.528798e-002,2.064357e-001,4.988658e-001
9.365346958292165e-003,2.654015e-007,2.654015e-007,2.654015e-007,2.654015e-007,4.765451e-003,1.532764e-002,2.133940e-001,4.913597e-001
9.378651332871227e-003,2.654015e-007,2.654015e-007,2.654015e-007,2.654015e-007,4.772172e-003,1.540770e-002,2.357962e-001,4.768721e-001
9.392462430218365e-003,2.654015e-007,2.654015e-007,2.654015e-007,2.654015e-007,4.779153e-003,1.549134e-002,2.760184e-001,4.621770e-001
9.406386501899771e-003,2.654015e-007,2.654015e-007,2.654015e-007,2.654015e-007,4.786192e-003,1.557638e-002,3.388841e-001,4.478166e-001
9.426112616170263e-003,2.654015e-007,2.654015e-007,2.654015e-007,2.654015e-007,4.796172e-003,1.569800e-002,4.542197e-001,4.281810e-001
9.447257854657382e-003,2.654015e-007,2.654015e-007,2.654015e-007,2.654015e-007,4.806877e-003,1.583017e-002,6.021450e-001,4.081621e-001
9.489548331631620e-003,2.654015e-007,2.654015e-007,2.654015e-007,2.654015e-007,4.828309e-003,1.609927e-002,9.358481e-001,3.706930e-001
9.533010718445945e-003,2.654015e-007,2.654015e-007,2.654015e-007,2.654015e-007,4.850367e-003,1.638250e-002,1.289127e+000,3.354273e-001
9.592897255679574e-003,2.654015e-007,2.654015e-007,2.654015e-007,2.654015e-007,4.880817e-003,1.678510e-002,1.744618e+000,2.921499e-001
9.662474735220852e-003,2.654015e-007,2.654015e-007,2.654015e-007,2.654015e-007,4.916291e-003,1.727324e-002,2.174202e+000,2.490578e-001
9.777359620080060e-003,2.654015e-007,2.654015e-007,2.654015e-007,2.654015e-007,4.975075e-003,1.812387e-002,2.670038e+000,1.906251e-001
9.889857524256649e-003,2.654015e-007,2.654015e-007,2.654015e-007,2.654015e-007,5.032897e-003,1.901161e-002,2.956297e+000,1.452816e-001
1.000448745915807e-002,2.654015e-007,2.654015e-007,2.654015e-007,2.654015e-007,5.092057e-003,1.996837e-002,3.102941e+000,1.083088e-001
1.002276781805935e-002,2.654015e-007,2.654015e-007,2.654015e-007,2.654015e-007,5.101524e-003,2.012808e-002,3.106197e+000,1.033764e-001
1.005932853586190e-002,2.654015e-007,2.654015e-007,2.654015e-007,2.654015e-007,5.120510e-003,2.045868e-002,3.064194e+000,9.476527e-002
1.010696570262739e-002,2.654015e-007,2.654015e-007,2.654015e-007,2.654015e-007,5.145292e-003,2.089939e-002,2.956894e+000,8.441350e-002
1.014661430810018e-002,2.654015e-007,2.654015e-007,2.654015e-007,2.654015e-007,5.165966e-003,2.127683e-002,2.839130e+000,7.662930e-002
1.019165539517996e-002,2.654015e-007,2.654015e-007,2.654015e-007,2.654015e-007,5.189525e-003,2.172249e-002,2.691341e+000,6.887586e-002
1.028173756933950e-002,2.654015e-007,2.654015e-007,2.654015e-007,2.654015e-007,5.236820e-003,2.265527e-002,2.389610e+000,5.556807e-002
1.036417274543834e-002,2.654015e-007,2.654015e-007,2.654015e-007,2.654015e-007,5.280294e-003,2.355539e-002,2.118588e+000,4.536788e-002
1.044082819892857e-002,2.654015e-007,2.654015e-007,2.654015e-007,2.654015e-007,5.320934e-003,2.444569e-002,1.877970e+000,3.766096e-002
1.052723495077665e-002,2.654015e-007,2.654015e-007,2.654015e-007,2.654015e-007,5.366994e-003,2.551400e-002,1.624281e+000,3.057823e-002
1.061116631263194e-002,2.654015e-007,2.654015e-007,2.654015e-007,2.654015e-007,5.412003e-003,2.662475e-002,1.398771e+000,2.501654e-002
1.070940174210480e-002,2.654015e-007,2.654015e-007,2.654015e-007,2.654015e-007,5.465040e-003,2.802745e-002,1.163234e+000,1.985362e-002
1.081335704933113e-002,2.654015e-007,2.654015e-007,2.654015e-007,2.654015e-007,5.521615e-003,2.965092e-002,9.481630e-001,1.562981e-002
1.094450496558532e-002,2.654015e-007,2.654015e-007,2.654015e-007,2.654015e-007,5.593696e-003,3.193826e-002,7.248011e-001,1.169504e-002
1.109853592760171e-002,2.654015e-007,2.654015e-007,2.654015e-007,2.654015e-007,5.679379e-003,3.501574e-002,5.200900e-001,8.448830e-003
1.126965597128474e-002,2.654015e-007,2.654015e-007,2.654015e-007,2.654015e-007,5.775919e-003,3.902774e-002,3.520777e-001,6.058108e-003
1.143155430173599e-002,2.654015e-007,2.654015e-007,2.654015e-007,2.654015e-007,5.868728e-003,4.359900e-002,2.399262e-001,4.639498e-003
1.160187097617499e-002,2.654015e-007,2.654015e-007,2.654015e-007,2.654015e-007,5.968094e-003,4.954765e-002,1.594783e-001,3.765416e-003
1.177608369670071e-002,2.654015e-007,2.654015e-007,2.654015e-007,2.654015e-007,6.071644e-003,5.728170e-002,1.040333e-001,3.291334e-003
1.194329527937760e-002,2.654015e-007,2.654015e-007,2.654015e-007,2.654015e-007,6.173013e-003,6.706060e-002,6.863843e-002,3.112342e-003
1.210385690209128e-002,2.654015e-007,2.654015e-007,2.654015e-007,2.654015e-007,6.272367e-003,8.002646e-002,4.606269e-002,3.122178e-003
1.226119986580231e-002,2.654015e-007,2.654015e-007,2.654015e-007,2.654015e-007,6.371805e-003,9.908321e-002,3.125722e-002,3.257210e-003
1.241795850197927e-002,2.654015e-007,2.654015e-007,2.654015e-007,2.654015e-007,6.472853e-003,1.290785e-001,2.109604e-002,3.479514e-003
1.251919118539329e-002,2.654015e-007,2.654015e-007,2.654015e-007,2.654015e-007,6.539211e-003,1.601703e-001,1.630471e-002,3.661902e-003
1.257318713125817e-002,2.654015e-007,2.654015e-007,2.654015e-007,2.654015e-007,6.575025e-003,1.846182e-001,1.426337e-002,3.772038e-003
1.258289730507919e-002,2.654015e-007,2.654015e-007,2.654015e-007,2.654015e-007,6.581511e-003,1.907152e-001,1.393963e-002,3.793092e-003
1.260231765272123e-002,2.654015e-007,2.654015e-007,2.654015e-007,2.654015e-007,6.594532e-003,2.060593e-001,1.333184e-002,3.836442e-003
1.261699005916366e-002,2.654015e-007,2.654015e-007,2.654015e-007,2.654015e-007,6.604389e-003,2.214469e-001,1.288852e-002,3.869726e-003
1.263191643969480e-002,2.654015e-007,2.654015e-007,2.654015e-007,2.654015e-007,6.614443e-003,2.487786e-001,1.245615e-002,3.904229e-003
1.264887593355893e-002,2.654015e-007,2.654015e-007,2.654015e-007,2.654015e-007,6.625895e-003,3.043626e-001,1.198437e-002,3.944127e-003
1.266570524515616e-002,2.654015e-007,2.654015e-007,2.654015e-007,2.654015e-007,6.637292e-003,3.881280e-001,1.153728e-002,3.984503e-003
1.268927872266367e-002,2.654015e-007,2.654015e-007,2.654015e-007,2.654015e-007,6.653307e-003,5.383099e-001,1.094323e-002,4.042306e-003
1.271452891567345e-002,2.654015e-007,2.654015e-007,2.654015e-007,2.654015e-007,6.670537e-003,7.261685e-001,1.034983e-002,4.105993e-003
1.275922083605001e-002,2.654015e-007,2.654015e-007,2.654015e-007,2.654015e-007,6.701206e-003,1.088225e+000,9.389402e-003,4.222690e-003
1.280592131105730e-002,2.654015e-007,2.654015e-007,2.654015e-007,2.654015e-007,6.733492e-003,1.461769e+000,8.495656e-003,4.350017e-003
1.287178474248255e-002,2.654015e-007,2.654015e-007,2.654015e-007,2.654015e-007,6.779478e-003,1.929734e+000,7.414320e-003,4.539528e-003
1.295307522185116e-002,2.654015e-007,2.654015e-007,2.654015e-007,2.654015e-007,6.836930e-003,2.382920e+000,6.306951e-003,4.788388e-003
1.304775770794958e-002,2.654015e-007,2.654015e-007,2.654015e-007,2.654015e-007,6.904899e-003,2.738770e+000,5.290462e-003,5.100548e-003
1.316794118085972e-002,2.654015e-007,2.654015e-007,2.654015e-007,2.654015e-007,6.992726e-003,2.991681e+000,4.314612e-003,5.529516e-003
1.327770281936933e-002,2.654015e-007,2.654015e-007,2.654015e-007,2.654015e-007,7.074723e-003,3.027072e+000,3.683491e-003,5.959471e-003
1.344246660457311e-002,2.654015e-007,2.654015e-007,2.654015e-007,2.654015e-007,7.200489e-003,2.785559e+000,3.036183e-003,6.663136e-003
1.352065864178848e-002,2.654015e-007,2.654015e-007,2.654015e-007,2.654016e-007,7.261320e-003,2.567916e+000,2.824190e-003,7.022732e-003
1.357941447801376e-002,2.654015e-007,2.654015e-007,2.654015e-007,2.654016e-007,7.307834e-003,2.370561e+000,2.717527e-003,7.311517e-003
1.365136711027187e-002,2.654015e-007,2.654015e-007,2.654016e-007,2.654016e-007,7.365586e-003,2.133851e+000,2.624869e-003,7.684229e-003
1.373200912318884e-002,2.654015e-007,2.654015e-007,2.654016e-007,2.654016e-007,7.431245e-003,1.880395e+000,2.557369e-003,8.125277e-003
1.381791848349197e-002,2.654015e-007,2.654016e-007,2.654016e-007,2.654016e-007,7.502299e-003,1.627739e+000,2.521153e-003,8.623861e-003
1.390305043105998e-002,2.654015e-007,2.654016e-007,2.654016e-007,2.654016e-007,7.573911e-003,1.398550e+000,2.516651e-003,9.150528e-003
1.399679477362506e-002,2.654016e-007,2.654016e-007,2.654016e-007,2.654016e-007,7.654227e-003,1.173123e+000,2.542176e-003,9.772138e-003
1.410231025774208e-002,2.654016e-007,2.654016e-007,2.654016e-007,2.654016e-007,7.746513e-003,9.536920e-001,2.601827e-003,1.052914e-002
1.422996298277066e-002,2.654016e-007,2.654016e-007,2.654016e-007,2.654016e-007,7.860934e-003,7.345909e-001,2.709210e-003,1.153590e-002
1.438614483868354e-002,2.654016e-007,2.654016e-007,2.654016e-007,2.654016e-007,8.005299e-003,5.279372e-001,2.882355e-003,1.292625e-002
1.459129987983247e-002,2.654016e-007,2.654016e-007,2.654016e-007,2.654016e-007,8.201651e-003,3.317278e-001,3.159642e-003,1.502436e-002
1.476755071856800e-002,2.654016e-007,2.654016e-007,2.654016e-007,2.654016e-007,8.376688e-003,2.156234e-001,3.435186e-003,1.711831e-002
1.492503173349020e-002,2.654016e-007,2.654016e-007,2.654016e-007,2.654016e-007,8.539098e-003,1.465848e-001,3.710967e-003,1.930784e-002
1.508512604086654e-002,2.654016e-007,2.654016e-007,2.654016e-007,2.654016e-007,8.710371e-003,9.928873e-002,4.018098e-003,2.192135e-002
1.525583592507388e-002,2.654016e-007,2.654016e-007,2.654016e-007,2.654016e-007,8.899767e-003,6.518034e-002,4.373562e-003,2.521426e-002
1.541443433258922e-002,2.654016e-007,2.654016e-007,2.654016e-007,2.654016e-007,9.082401e-003,4.392007e-002,4.731317e-003,2.887873e-002
1.557511256320654e-002,2.654016e-007,2.654016e-007,2.654016e-007,2.654016e-007,9.274509e-003,2.954880e-002,5.123573e-003,3.338224e-002
1.572935992646693e-002,2.654016e-007,2.654016e-007,2.654016e-007,2.654016e-007,9.465986e-003,2.026749e-002,5.530889e-003,3.871435e-002
1.588761452088649e-002,2.654016e-007,2.654016e-007,2.654016e-007,2.654016e-007,9.670055e-003,1.387878e-002,5.983208e-003,4.561502e-002
1.604271850600351e-002,2.654016e-007,2.654016e-007,2.654016e-007,2.654016e-007,9.877954e-003,9.679800e-003,6.463585e-003,5.443768e-002
1.620147895834177e-002,2.654016e-007,2.654016e-007,2.654016e-007,2.654016e-007,1.009936e-002,6.824916e-003,6.997359e-003,6.680702e-002
1.635922139550079e-002,2.654016e-007,2.654016e-007,2.654016e-007,2.654016e-007,1.032850e-002,4.958762e-003,7.574411e-003,8.525693e-002
1.652189934805263e-002,2.654016e-007,2.654016e-007,2.654016e-007,2.654016e-007,1.057378e-002,3.674848e-003,8.216999e-003,1.147898e-001
