time,V(spikes1),V(spikes2),V(spikes3),V(spikes4),V(spikes5),V(spikes6),V(spikes7),V(spikes8)
0.000000000000000e+000,2.654015e-007,2.984515e-007,3.480265e-007,4.306515e-007,2.654015e-007,2.984515e-007,3.480265e-007,4.306515e-007
2.340571362375549e-006,2.654015e-007,2.984515e-007,3.480265e-007,4.306515e-007,2.654012e-007,2.984512e-007,3.480262e-007,4.306512e-007
4.681142724751098e-006,2.654015e-007,2.984515e-007,3.480265e-007,4.306515e-007,2.654013e-007,2.984513e-007,3.480263e-007,4.306512e-007
7.021714087126647e-006,2.654015e-007,2.984515e-007,3.480265e-007,4.306515e-007,2.654017e-007,2.984517e-007,3.480267e-007,4.306517e-007
9.362285449502195e-006,2.654015e-007,2.984515e-007,3.480265e-007,4.306515e-007,2.654026e-007,2.984526e-007,3.480276e-007,4.306525e-007
1.170285681187774e-005,2.654015e-007,2.984515e-007,3.480265e-007,4.306515e-007,2.654038e-007,2.984538e-007,3.480288e-007,4.306538e-007
1.404342817425329e-005,2.654015e-007,2.984515e-007,3.480265e-007,4.306515e-007,2.654054e-007,2.984554e-007,3.480304e-007,4.306554e-007
1.638399953662884e-005,2.654015e-007,2.984515e-007,3.480265e-007,4.306515e-007,2.654074e-007,2.984574e-007,3.480324e-007,4.306574e-007
3.276799907325767e-005,2.654015e-007,2.984515e-007,3.480265e-007,4.306515e-007,2.655729e-007,2.986237e-007,3.481995e-007,4.308255e-007
6.553599814651534e-005,2.654015e-007,2.984515e-007,3.480265e-007,4.306515e-007,2.700499e-007,3.031391e-007,3.527597e-007,4.354384e-007
1.310719962930307e-004,2.654015e-007,2.984515e-007,3.480265e-007,4.306515e-007,3.746055e-007,4.093816e-007,4.609992e-007,5.460791e-007
2.621439925860614e-004,2.654015e-007,2.984515e-007,3.480265e-007,4.306515e-007,1.237024e-006,1.288369e-006,1.359702e-006,1.468633e-006
3.732814718921983e-004,2.654015e-007,2.984515e-007,3.480265e-007,4.306515e-007,3.476217e-006,3.579648e-006,3.713384e-006,3.898416e-006
4.860396093415135e-004,2.654015e-007,2.984515e-007,3.480265e-007,4.306515e-007,8.538678e-006,8.781851e-006,9.084174e-006,9.476512e-006
5.983660370086928e-004,2.654015e-007,2.984515e-007,3.480265e-007,4.306515e-007,1.667103e-005,1.716498e-005,1.777127e-005,1.853946e-005
6.597970824310196e-004,2.654015e-007,2.984515e-007,3.480265e-007,4.306515e-007,2.429608e-005,2.506674e-005,2.601141e-005,2.720244e-005
7.333642127275905e-004,2.654015e-007,2.984515e-007,3.480265e-007,4.306515e-007,3.675039e-005,3.803468e-005,3.961355e-005,4.160636e-005
8.804984733207321e-004,2.654015e-007,2.984515e-007,3.480265e-007,4.306515e-007,7.165773e-005,7.459680e-005,7.824380e-005,8.289044e-005
1.061701274511326e-003,2.654015e-007,2.984515e-007,3.480265e-007,4.306515e-007,1.351658e-004,1.416488e-004,1.498018e-004,1.603555e-004
1.324022754422247e-003,2.654015e-007,2.984515e-007,3.480265e-007,4.306515e-007,2.723714e-004,2.878635e-004,3.077096e-004,3.339997e-004
1.672482294866523e-003,2.654015e-007,2.984515e-007,3.480265e-007,4.306515e-007,5.463556e-004,5.830116e-004,6.310644e-004,6.966606e-004
2.244917243952626e-003,2.654015e-007,2.984515e-007,3.480265e-007,4.306515e-007,1.238952e-003,1.336729e-003,1.468555e-003,1.655485e-003
3.100435064231006e-003,2.654015e-007,2.984515e-007,3.480265e-007,4.306515e-007,2.831446e-003,3.079897e-003,3.422425e-003,3.923561e-003
3.908490561747327e-003,2.654015e-007,2.984515e-007,3.480265e-007,4.306515e-007,5.181953e-003,5.655204e-003,6.315189e-003,7.297383e-003
4.559476163106833e-003,2.654015e-007,2.984515e-007,3.480265e-007,4.306515e-007,8.120452e-003,8.868857e-003,9.917997e-003,1.149254e-002
5.040479666310691e-003,2.654015e-007,2.984515e-007,3.480265e-007,4.306515e-007,1.134806e-002,1.239031e-002,1.385406e-002,1.605851e-002
5.418033886393754e-003,2.654015e-007,2.984515e-007,3.480265e-007,4.306515e-007,1.495973e-002,1.632152e-002,1.823470e-002,2.111937e-002
5.760229088725391e-003,2.654015e-007,2.984515e-007,3.480265e-007,4.306515e-007,1.952364e-002,2.127635e-002,2.373748e-002,2.744781e-002
6.084254462454265e-003,2.654015e-007,2.984515e-007,3.480265e-007,4.306515e-007,2.556282e-002,2.781227e-002,3.096681e-002,3.571637e-002
6.385094164623839e-003,2.654015e-007,2.984515e-007,3.480265e-007,4.306515e-007,3.353685e-002,3.640775e-002,4.042524e-002,4.645913e-002
6.652278820375268e-003,2.654015e-007,2.984515e-007,3.480265e-007,4.306515e-007,4.383721e-002,4.745445e-002,5.250105e-002,6.005240e-002
6.883229972923034e-003,2.654015e-007,2.984515e-007,3.480265e-007,4.306515e-007,5.709936e-002,6.158558e-002,6.781914e-002,7.709861e-002
7.076716598972229e-003,2.654015e-007,2.984515e-007,3.480265e-007,4.306515e-007,7.404897e-002,7.949970e-002,8.703365e-002,9.817272e-002
7.233427203636955e-003,2.654015e-007,2.984515e-007,3.480265e-007,4.306515e-007,9.527846e-002,1.017209e-001,1.105673e-001,1.235352e-001
7.349597450824478e-003,2.654015e-007,2.984515e-007,3.480265e-007,4.306515e-007,1.174270e-001,1.247270e-001,1.346868e-001,1.491630e-001
7.366273762201270e-003,2.654015e-007,2.984515e-007,3.480265e-007,4.306515e-007,1.216726e-001,1.291046e-001,1.392316e-001,1.539261e-001
7.399626384954856e-003,2.654015e-007,2.984515e-007,3.480265e-007,4.306515e-007,1.328837e-001,1.405564e-001,1.509752e-001,1.660261e-001
7.466331630462026e-003,2.654015e-007,2.984515e-007,3.480265e-007,4.306515e-007,1.600389e-001,1.680942e-001,1.789460e-001,1.944649e-001
7.475237264545197e-003,2.654015e-007,2.984515e-007,3.480265e-007,4.306515e-007,1.645793e-001,1.726565e-001,1.835243e-001,1.990425e-001
7.493048532711541e-003,2.654015e-007,2.984515e-007,3.480265e-007,4.306515e-007,1.767514e-001,1.846582e-001,1.952956e-001,2.104788e-001
7.528671069044229e-003,2.654015e-007,2.984515e-007,3.480265e-007,4.306515e-007,2.068917e-001,2.138694e-001,2.233676e-001,2.370844e-001
7.533318143416962e-003,2.654015e-007,2.984515e-007,3.480265e-007,4.306515e-007,2.121831e-001,2.187952e-001,2.279299e-001,2.412464e-001
7.542612292162429e-003,2.654015e-007,2.984515e-007,3.480265e-007,4.306515e-007,2.254997e-001,2.307383e-001,2.386626e-001,2.507534e-001
7.544059758114601e-003,2.654015e-007,2.984515e-007,3.480265e-007,4.306515e-007,2.281874e-001,2.328642e-001,2.404998e-001,2.523381e-001
7.546954690018945e-003,2.654015e-007,2.984515e-007,3.480265e-007,4.306515e-007,2.350652e-001,2.376390e-001,2.444751e-001,2.556901e-001
7.547678422995032e-003,2.654015e-007,2.984515e-007,3.480265e-007,4.306515e-007,2.371321e-001,2.389651e-001,2.455166e-001,2.565533e-001
7.549125888947204e-003,2.654015e-007,2.984515e-007,3.480265e-007,4.306515e-007,2.419073e-001,2.421927e-001,2.477462e-001,2.583483e-001
7.552020820851549e-003,2.654015e-007,2.984515e-007,3.480265e-007,4.306515e-007,2.524452e-001,2.505347e-001,2.532677e-001,2.621836e-001
7.557810684660237e-003,2.654015e-007,2.984515e-007,3.480265e-007,4.306515e-007,2.764510e-001,2.717587e-001,2.692495e-001,2.721993e-001
7.566919302115281e-003,2.654015e-007,2.984515e-007,3.480265e-007,4.306515e-007,3.200006e-001,3.122013e-001,3.041101e-001,2.968065e-001
7.578478690115330e-003,2.654015e-007,2.984515e-007,3.480265e-007,4.306515e-007,3.840172e-001,3.730960e-001,3.602010e-001,3.431619e-001
7.594388420356932e-003,2.654015e-007,2.984515e-007,3.480265e-007,4.306515e-007,4.853747e-001,4.709615e-001,4.529169e-001,4.266196e-001
7.613800152692310e-003,2.654015e-007,2.984515e-007,3.480265e-007,4.306515e-007,6.255235e-001,6.077980e-001,5.848616e-001,5.500371e-001
7.640039282034059e-003,2.654015e-007,2.984515e-007,3.480265e-007,4.306515e-007,8.334489e-001,8.127038e-001,7.851937e-001,7.422505e-001
7.665571450544040e-003,2.654015e-007,2.984515e-007,3.480265e-007,4.306515e-007,1.045799e+000,1.023597e+000,9.937540e-001,9.464221e-001
7.698139310302921e-003,2.654015e-007,2.984515e-007,3.480265e-007,4.306515e-007,1.317147e+000,1.294713e+000,1.264257e+000,1.215352e+000
7.735320032425126e-003,2.654015e-007,2.984515e-007,3.480265e-007,4.306515e-007,1.610062e+000,1.588711e+000,1.559521e+000,1.512245e+000
7.788411523661096e-003,2.654015e-007,2.984515e-007,3.480265e-007,4.306515e-007,1.975309e+000,1.956750e+000,1.931222e+000,1.889568e+000
7.867588755508493e-003,2.654015e-007,2.984515e-007,3.480265e-007,4.306515e-007,2.404323e+000,2.390505e+000,2.371387e+000,2.339970e+000
7.960687987596049e-003,2.654015e-007,2.984515e-007,3.480265e-007,4.306515e-007,2.751977e+000,2.743145e+000,2.730855e+000,2.710509e+000
8.068241707450369e-003,2.654015e-007,2.984515e-007,3.480265e-007,4.306515e-007,2.984231e+000,2.980274e+000,2.974575e+000,2.964707e+000
8.181163440618826e-003,2.654015e-007,2.984515e-007,3.480265e-007,4.306515e-007,3.104802e+000,3.106538e+000,3.108014e+000,3.108601e+000
8.202053602428375e-003,2.654015e-007,2.984515e-007,3.480265e-007,4.306515e-007,3.110144e+000,3.113904e+000,3.117581e+000,3.120902e+000
8.207276142880762e-003,2.654015e-007,2.984515e-007,3.480265e-007,4.306515e-007,3.108792e+000,3.113399e+000,3.117904e+000,3.122159e+000
8.208581777993860e-003,2.654015e-007,2.984515e-007,3.480265e-007,4.306515e-007,3.108252e+000,3.113143e+000,3.117897e+000,3.122416e+000
8.211193048220053e-003,2.654015e-007,2.984515e-007,3.480265e-007,4.306515e-007,3.106453e+000,3.112111e+000,3.117688e+000,3.122820e+000
8.216415588672440e-003,2.654015e-007,2.984515e-007,3.480265e-007,4.306515e-007,3.100996e+000,3.108526e+000,3.116782e+000,3.123387e+000
8.217721223785538e-003,2.654015e-007,2.984515e-007,3.480265e-007,4.306515e-007,3.099120e+000,3.107151e+000,3.116292e+000,3.123446e+000
8.220332494011731e-003,2.654015e-007,2.984515e-007,3.480265e-007,4.306515e-007,3.094539e+000,3.103572e+000,3.114458e+000,3.123220e+000
8.225555034464118e-003,2.654015e-007,2.984515e-007,3.480265e-007,4.306515e-007,3.084348e+000,3.095392e+000,3.109151e+000,3.121566e+000
8.236000115368894e-003,2.654015e-007,2.984515e-007,3.480265e-007,4.306515e-007,3.061028e+000,3.076376e+000,3.095896e+000,3.115783e+000
8.256042401985970e-003,2.654015e-007,2.984515e-007,3.480265e-007,4.306515e-007,3.010046e+000,3.034712e+000,3.066999e+000,3.101768e+000
8.279856667823427e-003,2.654015e-007,2.984515e-007,3.480265e-007,4.306515e-007,2.941613e+000,2.979209e+000,3.029675e+000,3.082718e+000
8.326360650287284e-003,2.654015e-007,2.984515e-007,3.480265e-007,4.306515e-007,2.794527e+000,2.860976e+000,2.952187e+000,3.041390e+000
8.391860503976648e-003,2.654015e-007,2.984515e-007,3.480265e-007,4.306515e-007,2.577083e+000,2.686559e+000,2.838783e+000,2.979048e+000
8.472099440230278e-003,2.654015e-007,2.984515e-007,3.480265e-007,4.306515e-007,2.308797e+000,2.469499e+000,2.697174e+000,2.899908e+000
8.550187927033966e-003,2.654015e-007,2.984515e-007,3.480265e-007,4.306515e-007,2.054302e+000,2.259464e+000,2.558563e+000,2.822026e+000
8.620356306029335e-003,2.654015e-007,2.984515e-007,3.480265e-007,4.306515e-007,1.835963e+000,2.074131e+000,2.433855e+000,2.751888e+000
8.689490207752304e-003,2.654015e-007,2.984515e-007,3.480265e-007,4.306515e-007,1.633618e+000,1.896620e+000,2.310955e+000,2.682757e+000
8.764508019050142e-003,2.654015e-007,2.984515e-007,3.480265e-007,4.306515e-007,1.429724e+000,1.711213e+000,2.177592e+000,2.607740e+000
8.840098941281051e-003,2.654015e-007,2.984515e-007,3.480265e-007,4.306515e-007,1.241955e+000,1.533603e+000,2.043210e+000,2.532150e+000
8.922763333648838e-003,2.654015e-007,2.984515e-007,3.480265e-007,4.306515e-007,1.057979e+000,1.351832e+000,1.896338e+000,2.449486e+000
9.014509383875879e-003,2.654015e-007,2.984515e-007,3.480265e-007,4.306515e-007,8.796179e-001,1.166932e+000,1.734155e+000,2.357740e+000
9.123024845546900e-003,2.654015e-007,2.984515e-007,3.480265e-007,4.306515e-007,7.018063e-001,9.723403e-001,1.545893e+000,2.249225e+000
9.252494339412141e-003,2.654015e-007,2.984515e-007,3.480265e-007,4.306515e-007,5.318686e-001,7.745300e-001,1.331468e+000,2.119756e+000
9.417516315400937e-003,2.654015e-007,2.984515e-007,3.480265e-007,4.306515e-007,3.691201e-001,5.713835e-001,1.081056e+000,1.954735e+000
9.607251567538179e-003,2.654015e-007,2.984515e-007,3.480265e-007,4.306515e-007,2.362064e-001,3.925611e-001,8.286138e-001,1.765001e+000
9.776376441118327e-003,2.654015e-007,2.984515e-007,3.480265e-007,4.306515e-007,1.556197e-001,2.754796e-001,6.393853e-001,1.595877e+000
9.933267638952251e-003,2.654015e-007,2.984515e-007,3.480265e-007,4.306515e-007,1.059813e-001,1.978338e-001,4.969546e-001,1.438987e+000
1.010513845033435e-002,2.654015e-007,2.984515e-007,3.480265e-007,4.306515e-007,6.947488e-002,1.369345e-001,3.725137e-001,1.267344e+000
1.026226722459273e-002,2.654015e-007,2.984515e-007,3.480265e-007,4.306515e-007,4.702697e-002,9.723150e-002,2.833352e-001,1.112000e+000
1.042479887429313e-002,2.654015e-007,2.984515e-007,3.480265e-007,4.306515e-007,3.155320e-002,6.824042e-002,2.122258e-001,9.561588e-001
1.057842287193587e-002,2.654015e-007,2.984515e-007,3.480265e-007,4.306515e-007,2.172324e-002,4.880372e-002,1.607011e-001,8.174694e-001
1.073792608908139e-002,2.654015e-007,2.984515e-007,3.480265e-007,4.306515e-007,1.490539e-002,3.456375e-002,1.200748e-001,6.857252e-001
1.089268140653407e-002,2.654015e-007,2.984515e-007,3.480265e-007,4.306515e-007,1.049269e-002,2.481699e-002,9.027833e-002,5.717349e-001
1.105283926762210e-002,2.654015e-007,2.984515e-007,3.480265e-007,4.306515e-007,7.492874e-003,1.776555e-002,6.717551e-002,4.689332e-001
1.121133757538093e-002,2.654015e-007,2.984515e-007,3.480265e-007,4.306515e-007,5.577210e-003,1.292368e-002,5.015267e-002,3.820937e-001
1.137693885631397e-002,2.654015e-007,2.984515e-007,3.480265e-007,4.306515e-007,4.338021e-003,9.477661e-003,3.706375e-002,3.062246e-001
1.154625231193412e-002,2.654015e-007,2.984515e-007,3.480265e-007,4.306515e-007,3.609793e-003,7.139372e-003,2.734692e-002,2.426843e-001
1.172906794903991e-002,2.654015e-007,2.984515e-007,3.480265e-007,4.306515e-007,3.233599e-003,5.545149e-003,1.989543e-002,1.877771e-001
1.192185739450775e-002,2.654015e-007,2.984515e-007,3.480265e-007,4.306515e-007,3.141831e-003,4.568795e-003,1.445694e-002,1.424982e-001
1.212465609654509e-002,2.654015e-007,2.984515e-007,3.480265e-007,4.306515e-007,3.279169e-003,4.078649e-003,1.065197e-002,1.062554e-001
1.234473749944029e-002,2.654015e-007,2.984515e-007,3.480265e-007,4.306515e-007,3.618181e-003,3.961805e-003,8.033224e-003,7.700033e-002
1.256218617053660e-002,2.654015e-007,2.984515e-007,3.480265e-007,4.306515e-007,4.106756e-003,4.145635e-003,6.515551e-003,5.598883e-002
1.279522560660119e-002,2.654015e-007,2.984515e-007,3.480265e-007,4.306515e-007,4.783136e-003,4.592583e-003,5.711982e-003,4.003845e-002
1.304192716861098e-002,2.654015e-007,2.984515e-007,3.480265e-007,4.306515e-007,5.671123e-003,5.294907e-003,5.490815e-003,2.841208e-002
1.332061251776797e-002,2.654015e-007,2.984515e-007,3.480265e-007,4.306515e-007,6.896187e-003,6.338887e-003,5.774866e-003,1.968040e-002
1.357917299877738e-002,2.654015e-007,2.984515e-007,3.480265e-007,4.306515e-007,8.284770e-003,7.558776e-003,6.433115e-003,1.450829e-002
1.385121716711751e-002,2.654015e-007,2.984515e-007,3.480265e-007,4.306515e-007,1.007793e-002,9.148467e-003,7.490645e-003,1.124565e-002
1.412020491929816e-002,2.654015e-007,2.984515e-007,3.480265e-007,4.306515e-007,1.228530e-002,1.109876e-002,8.893474e-003,9.502395e-003
1.441983444216676e-002,2.654015e-007,2.984515e-007,3.480265e-007,4.306515e-007,1.543365e-002,1.384653e-002,1.091880e-002,8.786504e-003
1.474256720783866e-002,2.654015e-007,2.984515e-007,3.480265e-007,4.306515e-007,2.005493e-002,1.778070e-002,1.378825e-002,9.070305e-003
1.514281885687082e-002,2.654015e-007,2.984515e-007,3.480265e-007,4.306515e-007,2.841842e-002,2.460844e-002,1.857806e-002,1.056024e-002
1.551456334355778e-002,2.654015e-007,2.984515e-007,3.480265e-007,4.306515e-007,4.047941e-002,3.384041e-002,2.464800e-002,1.291112e-002
1.581365833360508e-002,2.654015e-007,2.984515e-007,3.480265e-007,4.306515e-007,5.600359e-002,4.474469e-002,3.124990e-002,1.554759e-002
1.602693855854040e-002,2.654015e-007,2.984515e-007,3.480265e-007,4.306515e-007,7.313794e-002,5.567895e-002,3.732563e-002,1.789606e-002
1.615233941876254e-002,2.654015e-007,2.984515e-007,3.480265e-007,4.306515e-007,8.821959e-002,6.429920e-002,4.171818e-002,1.951120e-002
1.625303189767564e-002,2.654015e-007,2.984515e-007,3.480265e-007,4.306515e-007,1.045155e-001,7.280175e-002,4.577202e-002,2.094164e-002
1.627403824055501e-002,2.654015e-007,2.984515e-007,3.480265e-007,4.306515e-007,1.088691e-001,7.487223e-002,4.670474e-002,2.125989e-002
1.631605092631375e-002,2.654015e-007,2.984515e-007,3.480265e-007,4.306515e-007,1.203154e-001,7.966416e-002,4.873902e-002,2.193182e-002
1.640007629783123e-002,2.654015e-007,2.984515e-007,3.480265e-007,4.306515e-007,1.517352e-001,9.066192e-002,5.313032e-002,2.333822e-002
1.645899334615654e-002,2.654015e-007,2.984515e-007,3.480265e-007,4.306515e-007,1.822940e-001,9.948411e-002,5.644672e-002,2.436871e-002
1.646764852416340e-002,2.654015e-007,2.984515e-007,3.480265e-007,4.306515e-007,1.887069e-001,1.009507e-001,5.696739e-002,2.452607e-002
1.648495888017712e-002,2.654015e-007,2.984515e-007,3.480265e-007,4.306515e-007,2.057374e-001,1.041116e-001,5.804999e-002,2.484787e-002
1.649878250123410e-002,2.654015e-007,2.984515e-007,3.480265e-007,4.306515e-007,2.229798e-001,1.067263e-001,5.892954e-002,2.510731e-002
1.650223840649834e-002,2.654015e-007,2.984515e-007,3.480265e-007,4.306515e-007,2.296498e-001,1.074046e-001,5.915340e-002,2.517282e-002
1.650915021702682e-002,2.654015e-007,2.984515e-007,3.480265e-007,4.306515e-007,2.510078e-001,1.088074e-001,5.960832e-002,2.530498e-002
1.652297383808380e-002,2.654015e-007,2.984515e-007,3.480265e-007,4.306515e-007,3.106109e-001,1.117203e-001,6.053397e-002,2.557178e-002
1.653957383232200e-002,2.654015e-007,2.984515e-007,3.480265e-007,4.306515e-007,4.010298e-001,1.154121e-001,6.167299e-002,2.589639e-002
1.655781884422378e-002,2.654015e-007,2.984515e-007,3.480265e-007,4.306515e-007,5.218621e-001,1.198505e-001,6.297386e-002,2.626047e-002
1.659430886802736e-002,2.654015e-007,2.984515e-007,3.480265e-007,4.306515e-007,8.005695e-001,1.299935e-001,6.571790e-002,2.700896e-002
1.663792289516105e-002,2.654015e-007,2.984515e-007,3.480265e-007,4.306515e-007,1.155734e+000,1.449509e-001,6.924701e-002,2.793711e-002
1.669134266982114e-002,2.654015e-007,2.984515e-007,3.480265e-007,4.306515e-007,1.581347e+000,1.708183e-001,7.399743e-002,2.912752e-002
1.674628741678628e-002,2.654015e-007,2.984515e-007,3.480265e-007,4.306515e-007,1.987269e+000,2.079437e-001,7.930084e-002,3.040119e-002
1.675487254578089e-002,2.654015e-007,2.984515e-007,3.480265e-007,4.306515e-007,2.045130e+000,2.159437e-001,8.018576e-002,3.060646e-002
1.675701882802954e-002,2.654015e-007,2.984515e-007,3.480265e-007,4.306515e-007,2.058744e+000,2.183731e-001,8.041518e-002,3.065866e-002
1.676131139252685e-002,2.654015e-007,2.984515e-007,3.480265e-007,4.306515e-007,2.085544e+000,2.238190e-001,8.087828e-002,3.076349e-002
1.676989652152145e-002,2.654015e-007,2.984515e-007,3.480265e-007,4.306515e-007,2.138259e+000,2.363480e-001,8.181342e-002,3.097404e-002
1.677204280377011e-002,2.654015e-007,2.984515e-007,3.480265e-007,4.306515e-007,2.151174e+000,2.405620e-001,8.204990e-002,3.102695e-002
1.677633536826741e-002,2.654015e-007,2.984515e-007,3.480265e-007,4.306515e-007,2.176398e+000,2.528982e-001,8.252918e-002,3.113338e-002
1.678492049726202e-002,2.654015e-007,2.984515e-007,3.480265e-007,4.306515e-007,2.225416e+000,2.861779e-001,8.350327e-002,3.134774e-002
1.679798454176701e-002,2.654015e-007,2.984515e-007,3.480265e-007,4.306515e-007,2.296874e+000,3.492918e-001,8.502089e-002,3.167726e-002
1.681182656179156e-002,2.654015e-007,2.984515e-007,3.480265e-007,4.306515e-007,2.367442e+000,4.307981e-001,8.669213e-002,3.203214e-002
1.683951060184067e-002,2.654015e-007,2.984515e-007,3.480265e-007,4.306515e-007,2.493757e+000,6.250809e-001,9.024344e-002,3.275972e-002
1.688024961009990e-002,2.654015e-007,2.984515e-007,3.480265e-007,4.306515e-007,2.652377e+000,9.457747e-001,9.594121e-002,3.386746e-002
1.692704028665203e-002,2.654015e-007,2.984515e-007,3.480265e-007,4.306515e-007,2.797632e+000,1.326411e+000,1.033461e-001,3.519965e-002
