time	V(vin)	V(vout)
0.000000000000000e+000	-1.000000e+000	7.611439e-009
2.340571362375549e-006	-9.999974e-001	7.611414e-009
4.681142724751098e-006	-9.999949e-001	7.611378e-009
7.021714087126647e-006	-9.999923e-001	7.611328e-009
9.362285449502195e-006	-9.999897e-001	7.611267e-009
1.170285681187774e-005	-9.999871e-001	7.611192e-009
1.404342817425329e-005	-9.999846e-001	7.611105e-009
1.638399953662884e-005	-9.999820e-001	7.611006e-009
3.276799907325767e-005	-9.999640e-001	7.610447e-009
6.553599814651534e-005	-9.999280e-001	7.609331e-009
1.310719962930307e-004	-9.998560e-001	7.607097e-009
2.621439925860614e-004	-9.997120e-001	7.602631e-009
3.759287716207477e-004	-9.995869e-001	7.598754e-009
4.911693759441049e-004	-9.994602e-001	7.594829e-009
6.076296293075083e-004	-9.993322e-001	7.590865e-009
6.699198287046867e-004	-9.992638e-001	7.588747e-009
7.465900326557295e-004	-9.991794e-001	7.586141e-009
8.999304405578150e-004	-9.990108e-001	7.580930e-009
1.102474765261744e-003	-9.987881e-001	7.574052e-009
1.396819314974730e-003	-9.984642e-001	7.564074e-009
1.814000767484142e-003	-9.980051e-001	7.549911e-009
2.494949715976995e-003	-9.972551e-001	7.526151e-009
3.280933553827263e-003	-9.963889e-001	7.495940e-009
3.905793472601543e-003	-9.956998e-001	7.466665e-009
4.348003132823278e-003	-9.952117e-001	7.439412e-009
4.687086293187438e-003	-9.948374e-001	7.411158e-009
4.994783531338925e-003	-9.944975e-001	7.376195e-009
5.290907272686630e-003	-9.941704e-001	7.330050e-009
5.571724561096429e-003	-9.938601e-001	7.270277e-009
5.831289542596486e-003	-9.935731e-001	7.196967e-009
6.061115670543104e-003	-9.933190e-001	7.116634e-009
6.259507005813242e-003	-9.930995e-001	7.043668e-009
6.425574033436776e-003	-9.929158e-001	7.004685e-009
6.559884028199002e-003	-9.927672e-001	7.037139e-009
6.659028192370710e-003	-9.926575e-001	7.136085e-009
6.673269598880778e-003	-9.926417e-001	7.166638e-009
6.701752411900915e-003	-9.926102e-001	7.277497e-009
6.758718037941188e-003	-9.925472e-001	7.595024e-009
6.767081610382145e-003	-9.925379e-001	7.665133e-009
6.783808755264059e-003	-9.925194e-001	7.897410e-009
6.817263045027888e-003	-9.924824e-001	8.549069e-009
6.821290093728851e-003	-9.924779e-001	8.659222e-009
6.822296855904092e-003	-9.924768e-001	8.693507e-009
6.824310380254573e-003	-9.924746e-001	8.770876e-009
6.828337428955535e-003	-9.924701e-001	8.993354e-009
6.836087934189970e-003	-9.924615e-001	9.737732e-009
6.848697554081663e-003	-9.924476e-001	1.172529e-008
6.862038326222364e-003	-9.924328e-001	1.506484e-008
6.881949714908474e-003	-9.924108e-001	2.272318e-008
6.904035915828992e-003	-9.923863e-001	3.519989e-008
6.928498364186546e-003	-9.923592e-001	5.423043e-008
6.955725572979748e-003	-9.923291e-001	8.084953e-008
6.988926631189022e-003	-9.922923e-001	1.183531e-007
7.026936089624541e-003	-9.922503e-001	1.679296e-007
7.066683950828068e-003	-9.922062e-001	2.423415e-007
7.111783183635229e-003	-9.921563e-001	4.063050e-007
7.160595853348020e-003	-9.921023e-001	7.702477e-007
7.213952830356802e-003	-9.920432e-001	1.419497e-006
7.267694567247547e-003	-9.919837e-001	2.130348e-006
7.326635120982667e-003	-9.919184e-001	2.513156e-006
7.388417893182769e-003	-9.918500e-001	2.281572e-006
7.397446501262710e-003	-9.918399e-001	2.138740e-006
7.415503717422594e-003	-9.918200e-001	1.701896e-006
7.420018021462565e-003	-9.918150e-001	1.575176e-006
7.429046629542507e-003	-9.918050e-001	1.271342e-006
7.447103845702390e-003	-9.917850e-001	5.898584e-007
7.449823394248001e-003	-9.917819e-001	4.755331e-007
7.455262491339222e-003	-9.917759e-001	2.214340e-007
7.466140685521664e-003	-9.917639e-001	-3.443166e-007
7.487077552567976e-003	-9.917407e-001	-1.543320e-006
7.489490890342532e-003	-9.917380e-001	-1.694601e-006
7.494317565891645e-003	-9.917327e-001	-2.023926e-006
7.503970916989870e-003	-9.917220e-001	-2.736284e-006
7.520671125408108e-003	-9.917035e-001	-4.118078e-006
7.545916855198790e-003	-9.916755e-001	-6.481207e-006
7.571514620170159e-003	-9.916471e-001	-9.201532e-006
7.605167188037352e-003	-9.916099e-001	-1.326429e-005
7.644560184290023e-003	-9.915662e-001	-1.866911e-005
7.697915984578791e-003	-9.915071e-001	-2.696953e-005
7.758814943952893e-003	-9.914396e-001	-3.750197e-005
7.809829592954189e-003	-9.913831e-001	-4.725832e-005
7.868606209905612e-003	-9.913180e-001	-6.007231e-005
7.925860463270549e-003	-9.912545e-001	-7.600812e-005
8.001431858362934e-003	-9.911708e-001	-1.062652e-004
8.085336739057928e-003	-9.910778e-001	-1.510742e-004
8.094928037454225e-003	-9.910672e-001	-1.573454e-004
8.114110634246819e-003	-9.910459e-001	-1.714651e-004
8.152475827832005e-003	-9.910033e-001	-2.010067e-004
8.199440582457872e-003	-9.909513e-001	-2.382934e-004
8.205259633207642e-003	-9.909449e-001	-2.429821e-004
8.216897734707181e-003	-9.909319e-001	-2.524160e-004
8.228896961334456e-003	-9.909186e-001	-2.621587e-004
8.231896767991275e-003	-9.909153e-001	-2.645971e-004
8.237896381304913e-003	-9.909087e-001	-2.694793e-004
8.249895607932187e-003	-9.908954e-001	-2.792567e-004
8.265432326363590e-003	-9.908782e-001	-2.919363e-004
8.282025253448407e-003	-9.908597e-001	-3.055067e-004
8.304179248071003e-003	-9.908352e-001	-3.236735e-004
8.327787162016452e-003	-9.908090e-001	-3.430986e-004
8.355180412706241e-003	-9.907786e-001	-3.657385e-004
8.386656433635949e-003	-9.907438e-001	-3.919032e-004
8.427423675661962e-003	-9.906985e-001	-4.260475e-004
8.479199743202544e-003	-9.906411e-001	-4.698463e-004
8.541451049107271e-003	-9.905721e-001	-5.232337e-004
8.592470178162816e-003	-9.905155e-001	-5.683037e-004
8.651380216556870e-003	-9.904502e-001	-6.240155e-004
8.708128375388275e-003	-9.903873e-001	-6.874033e-004
8.784589750531060e-003	-9.903024e-001	-7.994776e-004
8.868744606152489e-003	-9.902090e-001	-9.542087e-004
8.878312343518990e-003	-9.901984e-001	-9.746347e-004
8.897447818251993e-003	-9.901772e-001	-1.018507e-003
8.935718767718001e-003	-9.901348e-001	-1.106542e-003
8.979062446441279e-003	-9.900867e-001	-1.204369e-003
9.026643337890494e-003	-9.900339e-001	-1.307715e-003
9.071315208933917e-003	-9.899843e-001	-1.400051e-003
9.160658951020763e-003	-9.898852e-001	-1.577837e-003
9.172601453198861e-003	-9.898719e-001	-1.601013e-003
9.196486457555058e-003	-9.898454e-001	-1.646433e-003
9.244256466267453e-003	-9.897924e-001	-1.736471e-003
9.266304584772468e-003	-9.897679e-001	-1.777706e-003
9.266993588475750e-003	-9.897672e-001	-1.778988e-003
9.268371595882313e-003	-9.897656e-001	-1.781547e-003
9.271127610695439e-003	-9.897626e-001	-1.786661e-003
9.271816614398722e-003	-9.897618e-001	-1.787939e-003
9.273194621805285e-003	-9.897603e-001	-1.790493e-003
9.275950636618411e-003	-9.897572e-001	-1.795599e-003
9.281462666244664e-003	-9.897511e-001	-1.805797e-003
9.289717550993948e-003	-9.897419e-001	-1.821037e-003
9.306227320492515e-003	-9.897236e-001	-1.851413e-003
9.330576360408740e-003	-9.896966e-001	-1.896022e-003
9.353197343347046e-003	-9.896715e-001	-1.937260e-003
9.380175684289267e-003	-9.896415e-001	-1.986197e-003
9.408246634960685e-003	-9.896104e-001	-2.036874e-003
9.444862213847953e-003	-9.895697e-001	-2.102670e-003
9.489412199510074e-003	-9.895203e-001	-2.182418e-003
9.552668789349631e-003	-9.894500e-001	-2.295638e-003
9.603994182093862e-003	-9.893931e-001	-2.388668e-003
9.655047012577044e-003	-9.893364e-001	-2.485290e-003
9.710274473719862e-003	-9.892751e-001	-2.602409e-003
9.778053524004947e-003	-9.891998e-001	-2.781067e-003
9.847175464739792e-003	-9.891230e-001	-3.006917e-003
9.857326066313132e-003	-9.891118e-001	-3.046758e-003
9.877627269459814e-003	-9.890893e-001	-3.137075e-003
9.918229675753176e-003	-9.890441e-001	-3.326986e-003
9.928380277326517e-003	-9.890329e-001	-3.375993e-003
9.948681480473199e-003	-9.890103e-001	-3.474749e-003
9.989283886766561e-003	-9.889652e-001	-3.667148e-003
1.002753843585797e-002	-9.889227e-001	-3.839101e-003
1.006698160344166e-002	-9.888789e-001	-4.002340e-003
1.014586793860903e-002	-9.887913e-001	-4.301166e-003
1.022265437421721e-002	-9.887060e-001	-4.570122e-003
1.029795944882836e-002	-9.886223e-001	-4.816475e-003
1.038733033189834e-002	-9.885230e-001	-5.094691e-003
1.046880685933087e-002	-9.884325e-001	-5.338651e-003
1.056384403463213e-002	-9.883268e-001	-5.614176e-003
1.066061993019635e-002	-9.882193e-001	-5.886847e-003
1.078353457226531e-002	-9.880826e-001	-6.223781e-003
1.092250965310403e-002	-9.879281e-001	-6.595178e-003
1.107670866138024e-002	-9.877567e-001	-6.997424e-003
1.124388353471954e-002	-9.875707e-001	-7.423597e-003
1.140037233175863e-002	-9.873967e-001	-7.813274e-003
1.155898874424980e-002	-9.872202e-001	-8.198871e-003
1.171380123198842e-002	-9.870479e-001	-8.566166e-003
1.187458276045476e-002	-9.868690e-001	-8.938162e-003
1.203548646758137e-002	-9.866899e-001	-9.300959e-003
1.219518746578895e-002	-9.865121e-001	-9.651616e-003
1.235181203311743e-002	-9.863377e-001	-9.986336e-003
1.250854996554194e-002	-9.861631e-001	-1.031218e-002
1.266510137899244e-002	-9.859887e-001	-1.062855e-002
1.282334533955596e-002	-9.858124e-001	-1.093913e-002
1.298319005969155e-002	-9.856343e-001	-1.124344e-002
1.314706124395676e-002	-9.854516e-001	-1.154558e-002
1.331668382007727e-002	-9.852626e-001	-1.184781e-002
1.349651660701282e-002	-9.850621e-001	-1.215652e-002
1.369157421117084e-002	-9.848446e-001	-1.247768e-002
1.391081336148728e-002	-9.846000e-001	-1.282153e-002
1.416815729406657e-002	-9.843129e-001	-1.320249e-002
1.445715554418702e-002	-9.839904e-001	-1.360436e-002
1.467257215355785e-002	-9.837499e-001	-1.388830e-002
1.470191292615887e-002	-9.837171e-001	-1.392537e-002
1.476059447136092e-002	-9.836516e-001	-1.399728e-002
1.487795756176502e-002	-9.835206e-001	-1.413778e-002
1.498749145529510e-002	-9.833983e-001	-1.426562e-002
1.503097370091118e-002	-9.833497e-001	-1.431527e-002
1.503655738968227e-002	-9.833435e-001	-1.432156e-002
1.504772476722445e-002	-9.833310e-001	-1.433409e-002
1.504918994743842e-002	-9.833294e-001	-1.433573e-002
1.505212030786635e-002	-9.833261e-001	-1.433900e-002
1.505798102872221e-002	-9.833195e-001	-1.434553e-002
1.506970247043394e-002	-9.833064e-001	-1.435857e-002
1.508044465498692e-002	-9.832944e-001	-1.437047e-002
1.509786154871643e-002	-9.832750e-001	-1.438970e-002
1.511606388604640e-002	-9.832547e-001	-1.441010e-002
1.515246856070636e-002	-9.832140e-001	-1.445459e-002
1.519611697892497e-002	-9.831652e-001	-1.452203e-002
1.524966193479667e-002	-9.831054e-001	-1.464107e-002
1.531420814671760e-002	-9.830333e-001	-1.485313e-002
1.540993839602678e-002	-9.829263e-001	-1.526858e-002
1.550845720223516e-002	-9.828162e-001	-1.574860e-002
1.562605853369159e-002	-9.826848e-001	-1.632631e-002
1.563295261054070e-002	-9.826771e-001	-1.635873e-002
1.564674076423891e-002	-9.826617e-001	-1.642086e-002
1.567431707163535e-002	-9.826309e-001	-1.654127e-002
1.572946968642822e-002	-9.825692e-001	-1.676958e-002
1.580120366917787e-002	-9.824890e-001	-1.704601e-002
1.585724508906627e-002	-9.824264e-001	-1.724475e-002
1.590897288374264e-002	-9.823686e-001	-1.741419e-002
1.596605323683715e-002	-9.823048e-001	-1.758911e-002
1.604283995441673e-002	-9.822189e-001	-1.781087e-002
1.612726863671792e-002	-9.821245e-001	-1.804173e-002
1.621640648558402e-002	-9.820248e-001	-1.827571e-002
1.622697254265564e-002	-9.820130e-001	-1.830269e-002
1.624810465679887e-002	-9.819894e-001	-1.835561e-002
1.629036888508534e-002	-9.819421e-001	-1.846042e-002
1.631081062501859e-002	-9.819192e-001	-1.851064e-002
1.631592106000191e-002	-9.819135e-001	-1.852310e-002
1.631719866874774e-002	-9.819121e-001	-1.852621e-002
1.631975388623939e-002	-9.819092e-001	-1.853241e-002
1.632486432122271e-002	-9.819035e-001	-1.854480e-002
1.633318116839832e-002	-9.818942e-001	-1.856492e-002
1.634657930493711e-002	-9.818792e-001	-1.859719e-002
1.636044142659047e-002	-9.818637e-001	-1.863050e-002
1.638816566989719e-002	-9.818327e-001	-1.869835e-002
1.642931928887980e-002	-9.817867e-001	-1.880788e-002
1.647600780224815e-002	-9.817345e-001	-1.895910e-002
1.653327300981149e-002	-9.816704e-001	-1.920664e-002
1.660740763764660e-002	-9.815874e-001	-1.963570e-002
1.672153695797853e-002	-9.814597e-001	-2.042826e-002
1.683358664093722e-002	-9.813343e-001	-2.123576e-002
1.694829220712892e-002	-9.812060e-001	-2.202841e-002
1.696167408815960e-002	-9.811910e-001	-2.211519e-002
1.698843785022097e-002	-9.811611e-001	-2.227906e-002
1.704196537434371e-002	-9.811011e-001	-2.259218e-002
1.708825238766022e-002	-9.810493e-001	-2.284762e-002
1.713560994139700e-002	-9.809963e-001	-2.309286e-002
1.718599459391368e-002	-9.809399e-001	-2.333843e-002
1.727090595783601e-002	-9.808448e-001	-2.372913e-002
1.736409592200356e-002	-9.807405e-001	-2.413666e-002
1.744976767897871e-002	-9.806445e-001	-2.449482e-002
1.753347067584356e-002	-9.805508e-001	-2.483220e-002
1.762336509770845e-002	-9.804501e-001	-2.518393e-002
1.772698359544581e-002	-9.803340e-001	-2.557970e-002
1.781716046684949e-002	-9.802330e-001	-2.591808e-002
1.785880579035056e-002	-9.801863e-001	-2.607260e-002
1.786735858448260e-002	-9.801768e-001	-2.610413e-002
1.788446417274669e-002	-9.801576e-001	-2.616702e-002
1.788874056981271e-002	-9.801528e-001	-2.618272e-002
1.789729336394475e-002	-9.801432e-001	-2.621409e-002
1.789869821386486e-002	-9.801416e-001	-2.621925e-002
1.790150791370508e-002	-9.801385e-001	-2.622954e-002
1.790712731338552e-002	-9.801322e-001	-2.625011e-002
1.791610713381544e-002	-9.801221e-001	-2.628295e-002
1.793188693887046e-002	-9.801045e-001	-2.634058e-002
1.794640106330109e-002	-9.800882e-001	-2.639373e-002
1.797542931216236e-002	-9.800557e-001	-2.650342e-002
1.801850609818111e-002	-9.800074e-001	-2.668333e-002
1.806590490979929e-002	-9.799543e-001	-2.692715e-002
1.812592641685994e-002	-9.798871e-001	-2.733707e-002
1.820406145683596e-002	-9.797994e-001	-2.803043e-002
1.830780790056022e-002	-9.796832e-001	-2.910231e-002
1.842411585866930e-002	-9.795528e-001	-3.032470e-002
1.853544557309720e-002	-9.794280e-001	-3.143122e-002
1.854897255534652e-002	-9.794128e-001	-3.155723e-002
1.855235430090885e-002	-9.794090e-001	-3.158758e-002
1.855911779203351e-002	-9.794015e-001	-3.164766e-002
1.857264477428284e-002	-9.793863e-001	-3.176561e-002
1.859892214403863e-002	-9.793568e-001	-3.198793e-002
1.863087263920019e-002	-9.793210e-001	-3.224725e-002
1.866431715516106e-002	-9.792835e-001	-3.250355e-002
1.872913739595522e-002	-9.792108e-001	-3.296776e-002
1.881609035299448e-002	-9.791133e-001	-3.355084e-002
1.889399360301139e-002	-9.790259e-001	-3.404284e-002
1.897138733543372e-002	-9.789391e-001	-3.450838e-002
1.905746516904677e-002	-9.788425e-001	-3.500731e-002
1.914340688818522e-002	-9.787461e-001	-3.549055e-002
1.924192503203542e-002	-9.786355e-001	-3.603077e-002
1.934872982980056e-002	-9.785157e-001	-3.660454e-002
1.948149604311714e-002	-9.783667e-001	-3.730549e-002
1.964110629579588e-002	-9.781876e-001	-3.813516e-002
1.980643602536351e-002	-9.780020e-001	-3.898402e-002
1.982652781452688e-002	-9.779794e-001	-3.908616e-002
1.986671139285362e-002	-9.779342e-001	-3.928892e-002
1.992607715216770e-002	-9.778676e-001	-3.958751e-002
1.993537664525284e-002	-9.778572e-001	-3.963413e-002
1.995397563142311e-002	-9.778363e-001	-3.972714e-002
1.995862537796568e-002	-9.778311e-001	-3.975037e-002
1.996792487105082e-002	-9.778206e-001	-3.979676e-002
1.998652385722110e-002	-9.777997e-001	-3.988945e-002
1.999008818726840e-002	-9.777957e-001	-3.990720e-002
1.999721684736300e-002	-9.777877e-001	-3.994266e-002
2.001147416755219e-002	-9.777717e-001	-4.001348e-002
2.002818327793179e-002	-9.777529e-001	-4.009645e-002
2.004691924055246e-002	-9.777319e-001	-4.019080e-002
2.008301797787512e-002	-9.776914e-001	-4.038412e-002
2.012641366682337e-002	-9.776426e-001	-4.065713e-002
2.017928059292574e-002	-9.775832e-001	-4.109102e-002
2.024253295495816e-002	-9.775122e-001	-4.180002e-002
2.033544097478469e-002	-9.774078e-001	-4.312178e-002
2.043104511818237e-002	-9.773004e-001	-4.462302e-002
2.055073284365622e-002	-9.771659e-001	-4.650207e-002
2.055625783614743e-002	-9.771597e-001	-4.658445e-002
2.056730782112987e-002	-9.771473e-001	-4.674152e-002
2.058940779109473e-002	-9.771225e-001	-4.704659e-002
2.063360773102446e-002	-9.770728e-001	-4.763840e-002
2.064113133192750e-002	-9.770643e-001	-4.773606e-002
2.065617853373360e-002	-9.770474e-001	-4.792666e-002
2.065994033418513e-002	-9.770432e-001	-4.797373e-002
2.066746393508818e-002	-9.770347e-001	-4.806635e-002
2.068251113689428e-002	-9.770178e-001	-4.824745e-002
2.070776283000732e-002	-9.769894e-001	-4.854101e-002
2.073438067101164e-002	-9.769595e-001	-4.883440e-002
2.078761635302029e-002	-9.768997e-001	-4.937877e-002
2.087707416352977e-002	-9.767991e-001	-5.022518e-002
2.094814225217488e-002	-9.767193e-001	-5.085063e-002
2.101933405298366e-002	-9.766392e-001	-5.143953e-002
2.110843525645299e-002	-9.765390e-001	-5.214446e-002
2.118992356721641e-002	-9.764474e-001	-5.276646e-002
2.128503367555625e-002	-9.763405e-001	-5.347183e-002
2.138126961035604e-002	-9.762322e-001	-5.417020e-002
2.150350278085569e-002	-9.760947e-001	-5.504244e-002
2.164135600356530e-002	-9.759396e-001	-5.601377e-002
2.180844503608017e-002	-9.757516e-001	-5.717766e-002
2.198618148148980e-002	-9.755516e-001	-5.840093e-002
2.217250474843602e-002	-9.753419e-001	-5.966717e-002
2.233721378901916e-002	-9.751565e-001	-6.077208e-002
2.251184965896052e-002	-9.749599e-001	-6.192869e-002
2.266940084229397e-002	-9.747824e-001	-6.295918e-002
2.283126793480564e-002	-9.746001e-001	-6.400478e-002
2.298513727114788e-002	-9.744267e-001	-6.498653e-002
2.314445233123238e-002	-9.742472e-001	-6.599311e-002
2.316378572228284e-002	-9.742254e-001	-6.611435e-002
2.320245250438377e-002	-9.741818e-001	-6.635549e-002
2.326491950634761e-002	-9.741114e-001	-6.674406e-002
2.327395237602721e-002	-9.741012e-001	-6.680010e-002
2.329201811538640e-002	-9.740809e-001	-6.691191e-002
2.332321554756272e-002	-9.740458e-001	-6.710474e-002
2.332779213655093e-002	-9.740406e-001	-6.713299e-002
2.333694531452736e-002	-9.740303e-001	-6.718943e-002
2.334958089354532e-002	-9.740160e-001	-6.726728e-002
2.336198271782645e-002	-9.740021e-001	-6.734361e-002
2.338095774864330e-002	-9.739807e-001	-6.746025e-002
2.340097281770544e-002	-9.739581e-001	-6.758315e-002
2.344100295582971e-002	-9.739130e-001	-6.783012e-002
2.348453043214359e-002	-9.738639e-001	-6.810673e-002
2.354210462243053e-002	-9.737990e-001	-6.850014e-002
2.361016857999034e-002	-9.737223e-001	-6.902482e-002
2.371820308343739e-002	-9.736004e-001	-6.996632e-002
2.383720285985260e-002	-9.734662e-001	-7.108694e-002
2.394618185636587e-002	-9.733433e-001	-7.214472e-002
2.396365454614047e-002	-9.733236e-001	-7.231426e-002
2.399859992568969e-002	-9.732842e-001	-7.265116e-002
2.400733627057699e-002	-9.732744e-001	-7.273483e-002
2.402480896035160e-002	-9.732546e-001	-7.290039e-002
2.405975433990081e-002	-9.732152e-001	-7.322628e-002
2.409690729317350e-002	-9.731733e-001	-7.356488e-002
2.413421185180503e-002	-9.731312e-001	-7.389399e-002
2.420882096906809e-002	-9.730471e-001	-7.452929e-002
2.428147277599229e-002	-9.729651e-001	-7.512666e-002
2.435609559745111e-002	-9.728809e-001	-7.571914e-002
2.444708206093762e-002	-9.727782e-001	-7.642116e-002
2.452950557319922e-002	-9.726852e-001	-7.704228e-002
2.462388763444895e-002	-9.725786e-001	-7.774021e-002
2.471935727724036e-002	-9.724709e-001	-7.843640e-002
2.483959631839846e-002	-9.723352e-001	-7.930367e-002
2.497552672064230e-002	-9.721817e-001	-8.027579e-002
2.507083043772877e-002	-9.720740e-001	-8.095249e-002
2.512446708033195e-002	-9.720135e-001	-8.133131e-002
2.513787624098274e-002	-9.719983e-001	-8.142570e-002
2.516469456228433e-002	-9.719681e-001	-8.161403e-002
2.520224310173171e-002	-9.719256e-001	-8.187727e-002
2.522221201855087e-002	-9.719031e-001	-8.201703e-002
