time,VIN,VOUT
0.0,0.0,1.902876080062637e-09
9.999999717180685e-10,1.256637025895794e-08,1.902876063238214e-09
1.999999943436137e-09,2.513274051791588e-08,1.902876063244006e-09
3.999999886872274e-09,5.026548103583174e-08,1.902876008924277e-09
7.999999773744548e-09,1.005309620716634e-07,1.902876043638056e-09
1.59999995474891e-08,2.010619241433257e-07,1.902876047278406e-09
3.199999909497819e-08,4.021238482866432e-07,1.902876045497418e-09
6.399999818995639e-08,8.042476965732215e-07,1.902876108939504e-09
1.279999963799128e-07,1.608495393145923e-06,1.902876061924425e-09
2.559999927598256e-07,3.216990786287684e-06,1.902876073740911e-09
5.119999855196511e-07,6.433981572542075e-06,1.902876030080951e-09
1.023999971039302e-06,1.286796314481781e-05,1.902876082399333e-09
2.047999942078604e-06,2.573592628750488e-05,1.902876467995944e-09
4.095999884157209e-06,5.147185255796389e-05,1.902882740138904e-09
8.191999768314417e-06,0.0001029437049795607,1.90290779369358e-09
1.638399953662884e-05,0.0002058874088681852,1.902952556722936e-09
3.276799907325767e-05,0.0004117748090088802,1.903042398377127e-09
6.553599814651534e-05,0.0008235495481978412,1.903222686515496e-09
0.0001310719962930307,0.0016470985378364,1.903584053967897e-09
0.0002621439925860614,0.003294192607200815,1.904311521167497e-09
0.0004233988114697981,0.005320561279550603,1.905205512982981e-09
0.0005872891697121938,0.007380026370830602,1.906122283179686e-09
0.0007501658428061899,0.009426722382731506,1.907031262118026e-09
0.0009367699045266568,0.01177152592262516,1.908083450722992e-09
0.001196406592637408,0.01503392226604468,1.909550256160827e-09
0.001651469013236633,0.02075148204205609,1.912152424384471e-09
0.002120400134460214,0.02664258099537404,1.914869526141636e-09
0.002617899244166187,0.03289155859666241,1.917808091443498e-09
0.003189443628962011,0.04006900097853532,1.921262568669903e-09
0.003972816768839705,0.04990315214647196,1.92618972667791e-09
0.004949379268839705,0.06215564323487475,1.93272935123396e-09
0.005925941768839705,0.07439877391203278,1.939841361461437e-09
0.006902504268839705,0.08663070040749987,1.947647319343191e-09
0.007879066768839704,0.09884958063813833,1.95625683063818e-09
0.008855629268839704,0.11105357448553,1.965755178124541e-09
0.009832191768839704,0.1232408440730914,1.976228572852107e-09
0.0108087542688397,0.1354095540428507,1.987748004466158e-09
0.0117853167688397,0.1475578718318468,2.000402432838774e-09
0.0127618792688397,0.1596839679481054,2.014275477243706e-09
0.0137384417688397,0.1717860162461549,2.02948340935444e-09
0.0147150042688397,0.1838621942020363,2.046147926706983e-09
0.0156915667688397,0.1959106831877692,2.064433171571105e-09
0.0166681292688397,0.2079296687452301,2.084519699286173e-09
0.0176446917688397,0.2199173408594034,2.106652873059238e-09
0.0186212542688397,0.2318718942309629,2.131113333943419e-09
0.0195978167688397,0.243791528548143,2.158274254261962e-09
0.0205743792688397,0.2556744487578595,2.18858849031034e-09
0.0215509417688397,0.2675188653360376,2.222657712147802e-09
0.0225275042688397,0.2793229945571079,2.26125001160936e-09
0.0235040667688397,0.2910850587626284,2.305421494351636e-09
0.0244806292688397,0.3028032866289944,2.356622016577888e-09
0.0254571917688397,0.3144759134341921,2.416960145619293e-09
0.0264337542688397,0.3261011813235599,2.489588013158e-09
0.0274103167688397,0.3376773395745148,2.579447900033352e-09
0.0283868792688397,0.3492026448602046,2.694602293379764e-09
0.0293634417688397,0.3606753615120468,2.849053071909598e-09
0.0303400042688397,0.3720937617811135,3.069093256000467e-09
0.0313165667688397,0.3834561260983244,3.410540072988371e-09
0.03203705279121655,0.3918021019273389,3.806951563236102e-09
0.03256081818201858,0.3978491812313943,4.241037005586664e-09
0.03295460686308154,0.4023842919319535,4.714657481411361e-09
0.03326169858348949,0.4059141149860773,5.237953836892395e-09
0.03350081606435022,0.4086584343370351,5.810503592113534e-09
0.03368323104458303,0.4107495069032239,6.418053995013724e-09
0.0338106992533389,0.4122094292762871,6.994738409048818e-09
0.03392254804405772,0.4134895878406286,7.684631379745524e-09
0.03394504943554678,0.4137470275397904,7.861380733757159e-09
0.03399005221852489,0.4142618076757367,8.24870390060479e-09
0.03408005778448112,0.4152909703219558,9.347010335755857e-09
0.03409081633020018,0.4154139526750181,9.523289107991481e-09
0.0341123334216383,0.4156598946001808,9.912235252302008e-09
0.03415536760451454,0.4161516872637283,1.103526035287528e-08
0.03417670903498588,0.4163955310164408,1.197647359903656e-08
0.03417921161017248,0.4164241230765957,1.213568222954521e-08
0.03418421676054568,0.4164813059613533,1.253950307026888e-08
0.03419422706129208,0.4165956667878684,1.393388337954292e-08
0.03420846955183748,0.4167583661203776,1.706892354227167e-08
0.03422374784382161,0.4169328831066008,2.201741266213916e-08
0.03424590397011044,0.417185935163133,3.28749247485387e-08
0.03427119563007813,0.4174747596018592,5.117313180085477e-08
0.03429900205225477,0.4177922533276386,7.830399764532105e-08
0.03433126440237725,0.4181605609071351,1.167739309943821e-07
0.03437154081653544,0.4186202607198695,1.729205583345886e-07
0.03441593228462764,0.4191268039722902,2.567071439515354e-07
0.03446380112498966,0.4196728807534531,4.34876483941128e-07
0.03451669792970944,0.4202761387727633,8.933866669519377e-07
0.03457425695833308,0.4209323558264176,1.919979285478433e-06
0.03462775516576465,0.4215420789484277,3.369786771083869e-06
0.03470020150291393,0.4223674516009334,6.795056138729409e-06
0.03475945674068785,0.4230422793764598,1.357445897976567e-05
0.03480577583086622,0.4235696206234473,2.41831311887518e-05
0.03481176307602901,0.4236377747336814,2.600161175255848e-05
0.03482373756635459,0.4237740757594438,2.98944003703276e-05
0.03484768654700574,0.4240466490213444,3.903861958178848e-05
0.0348790718596312,0.4244038001050867,5.344595831677218e-05
0.03491227676421125,0.4247815854771481,7.165859755165888e-05
0.03495045685748498,0.4252158841294292,9.608202845082391e-05
0.03502681704403245,0.4260841876878151,0.0001552015325647145
0.03511102074707053,0.4270412262146812,0.0002340911210956993
0.03518741724579796,0.4279091163171719,0.0003154879418927975
0.03526563995273328,0.4287973441200346,0.000405827625144165
0.03534993667008716,0.4297540791537104,0.0005081855318373603
0.03543766705696942,0.4307492728865708,0.0006177247187608387
0.03553655432957414,0.4318704001193445,0.0007424713807653422
0.03564702088621512,0.4331220179630415,0.0008814687593998095
0.03578181337941994,0.4346481248692134,0.001049259610532613
0.0359475420509822,0.436522778354612,0.001252896723036174
0.03616746641716875,0.439007546271161,0.001519565930212797
0.03634424404986196,0.4410024002221168,0.001731078918134821
0.03649828248133711,0.4427388787537523,0.001913262885554199
0.03667144353899932,0.4446889461228709,0.002115678442708747
0.03683095644586674,0.4464834507389798,0.002299853897051014
0.03699360703597816,0.4483114066810291,0.002485375051098568
0.03714762067646074,0.4500405696574268,0.002658875229662595
0.03730630774414599,0.4518204394644929,0.002835414790171365
0.03746055006788287,0.4535487341981193,0.003004793591090048
0.0376187726916632,0.4553198579317075,0.003176256145873635
0.03777455171792125,0.4570618698644702,0.003342753936532819
0.03793457321492165,0.4588494998066089,0.003511374217556155
0.0380950457746851,0.4606403053573853,0.003677956746919683
0.03826217340059663,0.4625033871773412,0.00384874953987292
0.03843487261007361,0.4644264358666294,0.004022274927309885
0.03862073688736686,0.4664936367905705,0.004205629195740951
0.03882252113515357,0.4687350197255158,0.004400601617654533
0.03905202697992845,0.4712806649809457,0.004617107019437475
0.03931966190067975,0.474244279909524,0.004862331225956154
0.03965567122167113,0.4779574294800436,0.005158875402789946
0.04008848773417967,0.4827278025056593,0.005521601785257249
0.04069551786616917,0.4893942150600108,0.005992189130266436
0.04163772083365176,0.4996849553283926,0.006628745144699929
0.04261428333365176,0.5102770250157007,0.007158738831760721
0.04359084583365176,0.5207922488599879,0.007545714940860358
0.04456740833365176,0.5312290433072212,0.007780971587288654
0.04554397083365176,0.5415858366145464,0.007859796245739358
0.04652053333365176,0.5518610690869867,0.007783017449541733
0.04749709583365176,0.5620531933123271,0.007558575447995952
0.0481588648071548,0.5689118802617661,0.007330371912906723
0.04858592771814698,0.5733171756246052,0.007154239960172062
0.04886344982911845,0.5761710645742786,0.007028927719851098
0.04904464063666646,0.5780305549907359,0.006942876043970767
0.04923028595096538,0.5799326520762038,0.006851492217142106
0.04934980791828045,0.5811555886934441,0.006791027914368267
0.04937968841010922,0.5814611181094221,0.006775725531561705
0.04943944939376677,0.5820719309537982,0.006744898873002767
0.04953319842745283,0.5830294717459373,0.006695946931679288
0.04959971445643542,0.5837083674117007,0.006660807727831139
0.04961076155809697,0.5838210801468079,0.006654936009421587
0.04963285576142007,0.584046471861456,0.00664317126727583
0.04964831360458359,0.5842041366717502,0.006634916963126298
0.04966374375659481,0.5843614970572087,0.006626661412566575
0.04966760129459762,0.5844008337208996,0.006624594345590419
0.04967531637060323,0.5844795029284261,0.006620457837893236
0.04967724513960463,0.584499169371937,0.006619422861660828
0.04967772733185498,0.5845040859291635,0.006619164102560929
0.04967869171635568,0.5845139189792334,0.006618646555093282
0.04968062048535708,0.584533584821837,0.006617611261104986
0.04968447802335989,0.5845729154768577,0.006615539789731272
0.04969193679497757,0.5846489596647607,0.006611531413373082
0.04970562182399658,0.5847884688681528,0.006604296482668447
0.04972784265377631,0.5850149576890307,0.006594914027278161
0.04976138052001621,0.5853567105547296,0.006599844166785393
0.04980633084137266,0.5858145939508105,0.006691851760801145
0.04985605573358976,0.5863208954317685,0.006994371184808518
0.04991969159363646,0.586968505139237,0.007820277098580358
0.05000621452885427,0.5878484299320866,0.009785269652828178
0.0501001097193569,0.5888025430986276,0.01259952178555886
0.0502209434234551,0.5900291847258875,0.01604715065506355
0.0502347307754253,0.5901690604179074,0.01639188379123516
0.05026230547936569,0.5904487586507011,0.01704601853596305
0.05031745488724648,0.5910079423937722,0.01820544876897931
0.05033124223921667,0.5911476939878694,0.01846810889981795
0.05033468907720922,0.591182629113892,0.01853265898861231
0.05034158275319432,0.5912524960384765,0.01865951251542483
0.05035537010516451,0.5913922165759674,0.01890338250141401
0.05038294480910491,0.5916716043895579,0.01935557052856882
0.05041142934901695,0.5919601360930081,0.01977406851920077
0.05045035363067074,0.5923542936211027,0.02027943541487377
0.05052820219397833,0.5931421834119307,0.02111709977974339
0.05060582906062044,0.5939272642294509,0.02179750811203169
0.05067918385339495,0.5946686199893013,0.0223514481963919
0.05075809055606361,0.5954655216553312,0.02287843139260712
0.05084326211836057,0.5963250368914639,0.02339416391879583
0.05093077911989109,0.5972075097066669,0.02388478222335379
0.05102649696501585,0.5981718482139393,0.02439060410189112
0.05113625309075245,0.5992765544332039,0.02494710023152632
0.05126768478340017,0.6005979272522115,0.02559794985658949
0.05143144288315765,0.6022420068356403,0.02640200111159169
0.05164517014885808,0.6043839236222248,0.02744522144150622
0.0518212685464798,0.606145458880259,0.02829975800486684
0.05197662499422726,0.6076970455367416,0.02904951302434694
0.052152699868431,0.6094527523149429,0.02989487009176822
0.05231261060549075,0.6110446954139598,0.03065820461828006
0.05247565256698657,0.6126652700372328,0.03143238420804351
0.05262931042706659,0.6141902163588375,0.03215789153325985
0.05278907525022085,0.6157733416095029,0.03290820472322462
0.05294297465205777,0.6172959989044915,0.03362679294591986
0.05310178179994635,0.6188647922133588,0.03436416314711836
0.05325737778987986,0.620399473397159,0.03508228889100064
0.05341810680353695,0.6219822922647187,0.03581972771972959
0.05357891206695415,0.6235633228300312,0.03655282725510357
0.05374737159971085,0.6252168788058567,0.03731587871667787
0.05392162394990135,0.6269243475126516,0.03809961982459564
0.05411071498025911,0.6287738167306797,0.038943751518124
0.0543171151748679,0.6307885311873931,0.03985735377513685
0.05455467308388101,0.6331021288894045,0.0408987199306664
0.05483800491624902,0.6358541437752631,0.04212610754303615
0.05519858597169564,0.6393448225483622,0.04366460578746629
0.0556778030564708,0.6439636539006044,0.04566697199895203
0.05638657217544509,0.650752112567665,0.04853575797387751
0.05736313467544509,0.6600207715375574,0.05229463459012951
0.05833969717544509,0.6691900338070034,0.05580941575344326
0.05931625967544509,0.6782585185188325,0.05905472901593103
0.06029282217544509,0.6872248599926036,0.06200196694241306
0.06102291103862884,0.6938606602257799,0.06399112418940565
0.06154104089413737,0.6985345596908477,0.06528224169105111
0.06190534340803731,0.7018031084721381,0.06612642657265216
0.06216264104880799,0.7041027433431678,0.06668965313780804
0.06234091880716432,0.7056918109904428,0.06706338562720239
0.06248778428108533,0.7069982268373868,0.06736088727797741
0.06251573024649903,0.7072465426583666,0.06741639184089397
0.06257162217732642,0.7077429126020559,0.06752644218630281
0.06268340603898122,0.7087346048395581,0.06774229742116503
0.0627883236471738,0.709664110758465,0.06793979143813811
0.06280368509227666,0.7098001002873695,0.06796826374431894
0.06283440798248238,0.7100719999911623,0.06802493551223913
0.06285230125006525,0.7102303078786787,0.06805772738115096
0.06285677456696095,0.7102698792401546,0.06806590492046383
0.06286572120075239,0.7103490152297474,0.06808223534707078
0.06286795785920024,0.7103687978242713,0.06808630962781395
0.06287243117609595,0.7104083613297605,0.06809445430744707
0.06288137780988738,0.7104874816060671,0.06811071644537238
0.06288297066904593,0.7105015672425529,0.06811360728204739
0.06288336888383556,0.7105050886071951,0.06811432993461951
0.06288416531341483,0.7105121312831039,0.06811577512876445
0.06288575817257337,0.710526216421416,0.06811866471064919
0.06288894389089046,0.7105543858439993,0.0681244399737411
0.06289531532752463,0.710610721272844,0.06813597613448369
0.06290775615548094,0.7107207083527116,0.06815844773502149
0.06292785085629969,0.7108983252302832,0.06819459269526697
0.06295881512204046,0.7111719293470679,0.06825420397971635
0.06300212421055816,0.711554433225056,0.06839926382571658
0.0630499811275113,0.7119768581918563,0.06877506380831336
0.06311042049122546,0.712509978333275,0.06978190090825978
0.06319015688390625,0.7132126837762857,0.07209649340976437
0.06329233570327433,0.7141121242848332,0.07610151702893847
0.0634094111121486,0.7151412462662032,0.08085402551459181
0.0635205674662913,0.7161169058272079,0.0847873024326994
0.06353731869761933,0.7162638163474218,0.08531741815866145
0.06354150650545135,0.7163005390185909,0.08544815323523901
0.06354988212111537,0.7163739784095565,0.08570572805719597
0.0635666333524434,0.7165208333831481,0.08620162934856317
0.06359283458709432,0.7167504711316341,0.08692789031835126
0.06362103321977125,0.716997528035033,0.08764321675142539
0.0636774304851251,0.7174913717169439,0.08889736680114319
0.0637775563978696,0.7183672381053248,0.09068730109780221
0.0638551997977318,0.7190456525387974,0.09180613933011761
0.06392793851019814,0.719680590924896,0.09271272624940774
0.06401426563738725,0.7204333626589177,0.09366177946766953
0.06409730269903173,0.7211566450868657,0.09448497680425476
0.06419429372872464,0.7220004772585613,0.095377194491026
0.06429533234485144,0.7228783832099951,0.0962610983942109
0.06442263567367999,0.7239828391149906,0.09735075290801168
0.0645698103261413,0.7252573849216322,0.09860245090301827
0.06477042198847996,0.7269907039108463,0.1003002613936231
0.06494975173162594,0.7285362328209486,0.101809630068639
0.06510797498243327,0.7298967863387699,0.1031347573089619
0.06526467395722166,0.7312413887627375,0.1044409457826438
0.06543512122432595,0.732700742893553,0.1058546761235185
0.06559634315591971,0.7340780171777935,0.1071850595749549
0.06575685824738042,0.7354462598414173,0.1085029178229928
0.06591171556245619,0.7367634393243384,0.1097679625142544
0.066069274296809,0.7381007329317002,0.1110485476663982
0.06622474214655437,0.7394174438589347,0.1123056731631306
0.06638294924214322,0.7407544571312439,0.113578218357067
0.06654072137651149,0.742084878770834,0.1148405080729898
0.06670257688320208,0.7434467024080768,0.116128294042522
0.06686752574856401,0.7448313886893613,0.1174332309929799
0.06704088415153836,0.7462832208155259,0.1187963810175524
0.06722456963388716,0.7478176749640232,0.1202314426413904
0.06742689071392644,0.7495031937844443,0.1218007597308972
0.06765486746356451,0.7513966418691459,0.1235547799529689
0.06792729263084411,0.7536511647709987,0.1256304265500712
0.06826903736276432,0.7564668663399933,0.1282024594730722
0.06872467732687748,0.7601992635808738,0.1315750879712573
0.06939482490765579,0.7656434920541944,0.1364140195793846
0.07037138740765579,0.7734796933268464,0.143192587739715
0.07134794990765579,0.7811994114027654,0.1496249086665513
0.07232451240765579,0.7888014837208044,0.1556830454586304
0.07306813882241298,0.7945106525122297,0.1600240904194694
0.07360067201760166,0.7985565561675807,0.1629776077776968
0.07397912067700958,0.8014100805803852,0.1649934985594702
0.07424753425803422,0.8034229515037106,0.1663795864415769
0.07443461224484166,0.8048204713037953,0.1673237048507731
0.07456670217861014,0.8058045378880302,0.1679790909282757
0.07469275975589867,0.806741593201766,0.1685959162573167
0.07471619608249055,0.8069155852087679,0.1687095655149747
0.07476306873567432,0.8072633592420775,0.1689361263153913
0.07485681404204182,0.8079580669637437,0.1693855626206086
0.07492494844288748,0.808462279285634,0.1697091924463103
0.07493486751843975,0.8085356336172187,0.1697560703869767
0.07495470566954429,0.8086823045930319,0.1698497025044946
0.07495966520732042,0.8087189644846218,0.1698730694702996
0.07496958428287269,0.8087922748439687,0.1699197744715251
0.07497206405176075,0.808810600470403,0.1699314400673938
0.07497702358953688,0.8088472493670643,0.1699547644122437
0.07498694266508915,0.8089205377350595,0.1700013706104002
0.07500079251575013,0.8090228481155654,0.1700663534323126
0.07501584494333306,0.8091340142748222,0.1701368563549103
0.0750459497984989,0.8093562597384174,0.1702774777748909
0.0750865562290526,0.8096558483200528,0.1704875586720468
0.07513498966999088,0.8100129077968218,0.1708831377137343
0.0751920741466025,0.8104333589190915,0.1717780469412829
0.07526963320580025,0.8110039456630013,0.1739601148633005
0.07538645219939274,0.8118619058201029,0.1788578900101054
0.07549639093760507,0.8126677369434058,0.1840740856020897
0.07561366041254397,0.8135255913395395,0.1892341418044427
0.075707066065138,0.8142076122289296,0.1927051791982279
0.07579010797960735,0.8148130181763338,0.1951694208929712
0.07584190747313799,0.8151902061210051,0.1964361713528051
0.07590220827722234,0.8156288628881537,0.1977077377292882
0.07597596155843836,0.8161647426422822,0.199040132953767
0.0760566702615868,0.8167503560241426,0.2002871427032124
0.0761446095527316,0.81738747732067,0.2014768751911267
0.07622932811271059,0.8180003203644317,0.202508946613436
0.07632590606440183,0.818697821801248,0.2036115493822023
0.0764324565011137,0.8194659470121687,0.204784858966619
0.0765643339305833,0.8204146206480086,0.2062247019993599
0.07672342237158947,0.8215560407137023,0.2079516903817916
0.07693642553857177,0.8230791435684447,0.2102518837623151
0.07711368216309171,0.8243421416596886,0.2121522640786777
0.07726961036757239,0.8254497881129682,0.2138160648150126
0.07742939343309652,0.8265815300263812,0.21551034960991
0.07759822724768277,0.8277737572476429,0.2172918927367394
0.07775687318074492,0.8288906468197552,0.2189550296823848
0.0779169168545506,0.8300140386160492,0.2206246166842804
