Title: * C:\Users\Avi\Desktop\IEEGIT\TBioCAS2021\FIG5\2OZ\bounded\OZ_2_bounded_curves.asc
Date: Tue Apr 27 08:48:05 2021
Plotname: Operating Point
Flags: real
No. Variables: 607
No. Points:            1
Offset:   0.0000000000000000e+000
Command: Linear Technology Corporation LTspice XVII
Backannotation: u1 1 2 3 4 5
Backannotation: u2 1 2 3 4 5
Backannotation: u3 1 2 3 4 5
Backannotation: u4 1 2 3 4 5
Backannotation: u5 1 2 3 4 5
Backannotation: u6 1 2 3 4 5
Backannotation: u7 1 2 3 4 5
Backannotation: u8 1 2 3 4 5
Backannotation: u121 1 2 3 4 5
Backannotation: u122 1 2 3 4 5
Backannotation: u123 1 2 3 4 5
Backannotation: u9 1 2 3 4 5
Backannotation: u10 1 2 3 4 5
Backannotation: u11 1 2 3 4 5
Backannotation: u12 1 2 3 4 5
Backannotation: u13 1 2 3 4 5
Backannotation: u14 1 2 3 4 5
Backannotation: u15 1 2 3 4 5
Backannotation: u16 1 2 3 4 5
Backannotation: u17 1 2 3 4 5
Backannotation: u18 1 2 3 4 5
Backannotation: u19 1 2 3 4 5
Backannotation: u20 1 2 3 4 5
Backannotation: u21 1 2 3 4 5
Backannotation: u22 1 2 3 4 5
Backannotation: u65 1 2 3 4 5
Backannotation: u66 1 2 3 4 5
Backannotation: u67 1 2 3 4 5
Backannotation: u68 1 2 3 4 5
Backannotation: u69 1 2 3 4 5
Backannotation: u70 1 2 3 4 5
Backannotation: u71 1 2 3 4 5
Backannotation: u72 1 2 3 4 5
Backannotation: u73 1 2 3 4 5
Backannotation: u74 1 2 3 4 5
Backannotation: u75 1 2 3 4 5
Backannotation: u76 1 2 3 4 5
Backannotation: u77 1 2 3 4 5
Backannotation: u78 1 2 3 4 5
Backannotation: u124 1 2 3 4 5
Backannotation: u125 1 2 3 4 5
Backannotation: u126 1 2 3 4 5
Variables:
	0	V(vint)	voltage
	1	V(vdd)	voltage
	2	V(vss-)	voltage
	3	V(vss+)	voltage
	4	V(voffset)	voltage
	5	V(vref)	voltage
	6	V(vw)	voltage
	7	V(vgnd)	voltage
	8	V(n009)	voltage
	9	V(n010)	voltage
	10	V(n015)	voltage
	11	V(n011)	voltage
	12	V(n012)	voltage
	13	V(n013)	voltage
	14	V(n014)	voltage
	15	V(n017)	voltage
	16	V(n018)	voltage
	17	V(n019)	voltage
	18	V(n020)	voltage
	19	V(vin)	voltage
	20	V(vpos)	voltage
	21	V(vneg)	voltage
	22	V(n005)	voltage
	23	V(n002)	voltage
	24	V(spikes1)	voltage
	25	V(n001)	voltage
	26	V(n007)	voltage
	27	V(v0)	voltage
	28	V(vout1)	voltage
	29	V(n006)	voltage
	30	V(n004)	voltage
	31	V(spikes5)	voltage
	32	V(n003)	voltage
	33	V(n008)	voltage
	34	V(vout5)	voltage
	35	V(v1)	voltage
	36	V(v2)	voltage
	37	V(v3)	voltage
	38	V(v4)	voltage
	39	V(vout)	voltage
	40	V(n023)	voltage
	41	V(n016)	voltage
	42	V(n021)	voltage
	43	V(n022)	voltage
	44	V(t1)	voltage
	45	V(t5)	voltage
	46	V(n089)	voltage
	47	V(wc)	voltage
	48	V(n064)	voltage
	49	V(n072)	voltage
	50	V(n073)	voltage
	51	V(n043)	voltage
	52	V(n082)	voltage
	53	V(n063)	voltage
	54	V(n032)	voltage
	55	V(n036)	voltage
	56	V(n061)	voltage
	57	V(n062)	voltage
	58	V(errorsig)	voltage
	59	V(n040)	voltage
	60	V(n038)	voltage
	61	V(n037)	voltage
	62	V(n031)	voltage
	63	V(n080)	voltage
	64	V(n034)	voltage
	65	V(n081)	voltage
	66	V(n041)	voltage
	67	V(n035)	voltage
	68	V(n044)	voltage
	69	V(n074)	voltage
	70	V(n042)	voltage
	71	V(n083)	voltage
	72	V(n049)	voltage
	73	V(n046)	voltage
	74	V(n045)	voltage
	75	V(n093)	voltage
	76	V(n047)	voltage
	77	V(n094)	voltage
	78	V(n050)	voltage
	79	V(n048)	voltage
	80	V(n053)	voltage
	81	V(n084)	voltage
	82	V(n054)	voltage
	83	V(n055)	voltage
	84	V(n100)	voltage
	85	V(n088)	voltage
	86	V(n090)	voltage
	87	V(n091)	voltage
	88	V(n066)	voltage
	89	V(n097)	voltage
	90	V(n087)	voltage
	91	V(n039)	voltage
	92	V(n056)	voltage
	93	V(n085)	voltage
	94	V(n086)	voltage
	95	V(n059)	voltage
	96	V(n058)	voltage
	97	V(n057)	voltage
	98	V(n033)	voltage
	99	V(n095)	voltage
	100	V(n051)	voltage
	101	V(n096)	voltage
	102	V(n060)	voltage
	103	V(n052)	voltage
	104	V(n067)	voltage
	105	V(n092)	voltage
	106	V(n065)	voltage
	107	V(n098)	voltage
	108	V(n075)	voltage
	109	V(n069)	voltage
	110	V(n068)	voltage
	111	V(n101)	voltage
	112	V(n070)	voltage
	113	V(n102)	voltage
	114	V(n076)	voltage
	115	V(n071)	voltage
	116	V(n077)	voltage
	117	V(n099)	voltage
	118	V(n078)	voltage
	119	V(n079)	voltage
	120	V(n025)	voltage
	121	V(n029)	voltage
	122	V(n026)	voltage
	123	V(n028)	voltage
	124	V(n027)	voltage
	125	V(n030)	voltage
	126	V(n024)	voltage
	127	I(B1)	device_current
	128	Id(M21)	device_current
	129	Ig(M21)	device_current
	130	Ib(M21)	device_current
	131	Is(M21)	device_current
	132	Id(M17)	device_current
	133	Ig(M17)	device_current
	134	Ib(M17)	device_current
	135	Is(M17)	device_current
	136	Id(M10)	device_current
	137	Ig(M10)	device_current
	138	Ib(M10)	device_current
	139	Is(M10)	device_current
	140	Id(M9)	device_current
	141	Ig(M9)	device_current
	142	Ib(M9)	device_current
	143	Is(M9)	device_current
	144	Id(Mnnot10)	device_current
	145	Ig(Mnnot10)	device_current
	146	Ib(Mnnot10)	device_current
	147	Is(Mnnot10)	device_current
	148	Id(Mvlk5)	device_current
	149	Ig(Mvlk5)	device_current
	150	Ib(Mvlk5)	device_current
	151	Is(Mvlk5)	device_current
	152	Id(Mref5)	device_current
	153	Ig(Mref5)	device_current
	154	Ib(Mref5)	device_current
	155	Is(Mref5)	device_current
	156	Id(Mvref5)	device_current
	157	Ig(Mvref5)	device_current
	158	Ib(Mvref5)	device_current
	159	Is(Mvref5)	device_current
	160	Id(Mnnot9)	device_current
	161	Ig(Mnnot9)	device_current
	162	Ib(Mnnot9)	device_current
	163	Is(Mnnot9)	device_current
	164	Id(M2)	device_current
	165	Ig(M2)	device_current
	166	Ib(M2)	device_current
	167	Is(M2)	device_current
	168	Id(M1)	device_current
	169	Ig(M1)	device_current
	170	Ib(M1)	device_current
	171	Is(M1)	device_current
	172	Id(Mnnot2)	device_current
	173	Ig(Mnnot2)	device_current
	174	Ib(Mnnot2)	device_current
	175	Is(Mnnot2)	device_current
	176	Id(Mvlk1)	device_current
	177	Ig(Mvlk1)	device_current
	178	Ib(Mvlk1)	device_current
	179	Is(Mvlk1)	device_current
	180	Id(Mref1)	device_current
	181	Ig(Mref1)	device_current
	182	Ib(Mref1)	device_current
	183	Is(Mref1)	device_current
	184	Id(Mvref1)	device_current
	185	Ig(Mvref1)	device_current
	186	Ib(Mvref1)	device_current
	187	Is(Mvref1)	device_current
	188	Id(Mnnot1)	device_current
	189	Ig(Mnnot1)	device_current
	190	Ib(Mnnot1)	device_current
	191	Is(Mnnot1)	device_current
	192	Id(Mpnot10)	device_current
	193	Ig(Mpnot10)	device_current
	194	Ib(Mpnot10)	device_current
	195	Is(Mpnot10)	device_current
	196	Id(Min5)	device_current
	197	Ig(Min5)	device_current
	198	Ib(Min5)	device_current
	199	Is(Min5)	device_current
	200	Id(Mina5)	device_current
	201	Ig(Mina5)	device_current
	202	Ib(Mina5)	device_current
	203	Is(Mina5)	device_current
	204	Id(Mpnot9)	device_current
	205	Ig(Mpnot9)	device_current
	206	Ib(Mpnot9)	device_current
	207	Is(Mpnot9)	device_current
	208	Id(Mw5)	device_current
	209	Ig(Mw5)	device_current
	210	Ib(Mw5)	device_current
	211	Is(Mw5)	device_current
	212	Id(Mpnot2)	device_current
	213	Ig(Mpnot2)	device_current
	214	Ib(Mpnot2)	device_current
	215	Is(Mpnot2)	device_current
	216	Id(Min1)	device_current
	217	Ig(Min1)	device_current
	218	Ib(Min1)	device_current
	219	Is(Min1)	device_current
	220	Id(Mina1)	device_current
	221	Ig(Mina1)	device_current
	222	Ib(Mina1)	device_current
	223	Is(Mina1)	device_current
	224	Id(Mpnot1)	device_current
	225	Ig(Mpnot1)	device_current
	226	Ib(Mpnot1)	device_current
	227	Is(Mpnot1)	device_current
	228	Id(Mw1)	device_current
	229	Ig(Mw1)	device_current
	230	Ib(Mw1)	device_current
	231	Is(Mw1)	device_current
	232	I(C9)	device_current
	233	I(C5)	device_current
	234	I(C1)	device_current
	235	I(Cint5)	device_current
	236	I(Ck5)	device_current
	237	I(Csyn5)	device_current
	238	I(Cint1)	device_current
	239	I(Ck1)	device_current
	240	I(Csyn1)	device_current
	241	I(D80)	device_current
	242	I(D79)	device_current
	243	I(D78)	device_current
	244	I(D77)	device_current
	245	I(D76)	device_current
	246	I(D75)	device_current
	247	I(D74)	device_current
	248	I(D73)	device_current
	249	I(D72)	device_current
	250	I(D71)	device_current
	251	I(D70)	device_current
	252	I(D69)	device_current
	253	I(D68)	device_current
	254	I(D67)	device_current
	255	I(D66)	device_current
	256	I(D65)	device_current
	257	I(D16)	device_current
	258	I(D15)	device_current
	259	I(D14)	device_current
	260	I(D13)	device_current
	261	I(D12)	device_current
	262	I(D11)	device_current
	263	I(D10)	device_current
	264	I(D9)	device_current
	265	I(D8)	device_current
	266	I(D7)	device_current
	267	I(D6)	device_current
	268	I(D5)	device_current
	269	I(D4)	device_current
	270	I(D3)	device_current
	271	I(D2)	device_current
	272	I(D1)	device_current
	273	I(R371)	device_current
	274	I(R370)	device_current
	275	I(R369)	device_current
	276	I(R368)	device_current
	277	I(R367)	device_current
	278	I(R366)	device_current
	279	I(R365)	device_current
	280	I(R227)	device_current
	281	I(R226)	device_current
	282	I(R225)	device_current
	283	I(R224)	device_current
	284	I(R223)	device_current
	285	I(R222)	device_current
	286	I(R221)	device_current
	287	I(R220)	device_current
	288	I(R219)	device_current
	289	I(R218)	device_current
	290	I(R217)	device_current
	291	I(R216)	device_current
	292	I(R215)	device_current
	293	I(R214)	device_current
	294	I(R213)	device_current
	295	I(R212)	device_current
	296	I(R211)	device_current
	297	I(R210)	device_current
	298	I(R209)	device_current
	299	I(R208)	device_current
	300	I(R207)	device_current
	301	I(R206)	device_current
	302	I(R205)	device_current
	303	I(R204)	device_current
	304	I(R203)	device_current
	305	I(R202)	device_current
	306	I(R201)	device_current
	307	I(R200)	device_current
	308	I(R199)	device_current
	309	I(R198)	device_current
	310	I(R197)	device_current
	311	I(R196)	device_current
	312	I(R195)	device_current
	313	I(R194)	device_current
	314	I(R193)	device_current
	315	I(R192)	device_current
	316	I(R191)	device_current
	317	I(R190)	device_current
	318	I(R189)	device_current
	319	I(R188)	device_current
	320	I(R187)	device_current
	321	I(R186)	device_current
	322	I(R59)	device_current
	323	I(R58)	device_current
	324	I(R57)	device_current
	325	I(R56)	device_current
	326	I(R55)	device_current
	327	I(R54)	device_current
	328	I(R53)	device_current
	329	I(R52)	device_current
	330	I(R51)	device_current
	331	I(R50)	device_current
	332	I(R49)	device_current
	333	I(R48)	device_current
	334	I(R47)	device_current
	335	I(R46)	device_current
	336	I(R45)	device_current
	337	I(R44)	device_current
	338	I(R43)	device_current
	339	I(R42)	device_current
	340	I(R41)	device_current
	341	I(R40)	device_current
	342	I(R39)	device_current
	343	I(R38)	device_current
	344	I(R37)	device_current
	345	I(R36)	device_current
	346	I(R35)	device_current
	347	I(R34)	device_current
	348	I(R33)	device_current
	349	I(R32)	device_current
	350	I(R31)	device_current
	351	I(R30)	device_current
	352	I(R29)	device_current
	353	I(R28)	device_current
	354	I(R27)	device_current
	355	I(R26)	device_current
	356	I(R25)	device_current
	357	I(R24)	device_current
	358	I(R23)	device_current
	359	I(R22)	device_current
	360	I(R9)	device_current
	361	I(R8)	device_current
	362	I(R7)	device_current
	363	I(R6)	device_current
	364	I(R361)	device_current
	365	I(R357)	device_current
	366	I(R356)	device_current
	367	I(R355)	device_current
	368	I(R354)	device_current
	369	I(R5)	device_current
	370	I(R4)	device_current
	371	I(R3)	device_current
	372	I(R2)	device_current
	373	I(R1)	device_current
	374	I(R21)	device_current
	375	I(R20)	device_current
	376	I(R19)	device_current
	377	I(R18)	device_current
	378	I(R17)	device_current
	379	I(R16)	device_current
	380	I(R15)	device_current
	381	I(R14)	device_current
	382	I(R13)	device_current
	383	I(R12)	device_current
	384	I(R11)	device_current
	385	I(R10)	device_current
	386	I(Vdd3)	device_current
	387	I(V4)	device_current
	388	I(V3)	device_current
	389	I(Vdd2)	device_current
	390	I(Voff3)	device_current
	391	I(Voff2)	device_current
	392	I(Voff1)	device_current
	393	I(V2)	device_current
	394	I(V1)	device_current
	395	I(Vdd1)	device_current
	396	I(Vtemp1)	device_current
	397	Ix(u1:1)	subckt_current
	398	Ix(u1:2)	subckt_current
	399	Ix(u1:3)	subckt_current
	400	Ix(u1:4)	subckt_current
	401	Ix(u1:5)	subckt_current
	402	Ix(u2:1)	subckt_current
	403	Ix(u2:2)	subckt_current
	404	Ix(u2:3)	subckt_current
	405	Ix(u2:4)	subckt_current
	406	Ix(u2:5)	subckt_current
	407	Ix(u3:1)	subckt_current
	408	Ix(u3:2)	subckt_current
	409	Ix(u3:3)	subckt_current
	410	Ix(u3:4)	subckt_current
	411	Ix(u3:5)	subckt_current
	412	Ix(u4:1)	subckt_current
	413	Ix(u4:2)	subckt_current
	414	Ix(u4:3)	subckt_current
	415	Ix(u4:4)	subckt_current
	416	Ix(u4:5)	subckt_current
	417	Ix(u5:1)	subckt_current
	418	Ix(u5:2)	subckt_current
	419	Ix(u5:3)	subckt_current
	420	Ix(u5:4)	subckt_current
	421	Ix(u5:5)	subckt_current
	422	Ix(u6:1)	subckt_current
	423	Ix(u6:2)	subckt_current
	424	Ix(u6:3)	subckt_current
	425	Ix(u6:4)	subckt_current
	426	Ix(u6:5)	subckt_current
	427	Ix(u7:1)	subckt_current
	428	Ix(u7:2)	subckt_current
	429	Ix(u7:3)	subckt_current
	430	Ix(u7:4)	subckt_current
	431	Ix(u7:5)	subckt_current
	432	Ix(u8:1)	subckt_current
	433	Ix(u8:2)	subckt_current
	434	Ix(u8:3)	subckt_current
	435	Ix(u8:4)	subckt_current
	436	Ix(u8:5)	subckt_current
	437	Ix(u121:1)	subckt_current
	438	Ix(u121:2)	subckt_current
	439	Ix(u121:3)	subckt_current
	440	Ix(u121:4)	subckt_current
	441	Ix(u121:5)	subckt_current
	442	Ix(u122:1)	subckt_current
	443	Ix(u122:2)	subckt_current
	444	Ix(u122:3)	subckt_current
	445	Ix(u122:4)	subckt_current
	446	Ix(u122:5)	subckt_current
	447	Ix(u123:1)	subckt_current
	448	Ix(u123:2)	subckt_current
	449	Ix(u123:3)	subckt_current
	450	Ix(u123:4)	subckt_current
	451	Ix(u123:5)	subckt_current
	452	Ix(u9:1)	subckt_current
	453	Ix(u9:2)	subckt_current
	454	Ix(u9:3)	subckt_current
	455	Ix(u9:4)	subckt_current
	456	Ix(u9:5)	subckt_current
	457	Ix(u10:1)	subckt_current
	458	Ix(u10:2)	subckt_current
	459	Ix(u10:3)	subckt_current
	460	Ix(u10:4)	subckt_current
	461	Ix(u10:5)	subckt_current
	462	Ix(u11:1)	subckt_current
	463	Ix(u11:2)	subckt_current
	464	Ix(u11:3)	subckt_current
	465	Ix(u11:4)	subckt_current
	466	Ix(u11:5)	subckt_current
	467	Ix(u12:1)	subckt_current
	468	Ix(u12:2)	subckt_current
	469	Ix(u12:3)	subckt_current
	470	Ix(u12:4)	subckt_current
	471	Ix(u12:5)	subckt_current
	472	Ix(u13:1)	subckt_current
	473	Ix(u13:2)	subckt_current
	474	Ix(u13:3)	subckt_current
	475	Ix(u13:4)	subckt_current
	476	Ix(u13:5)	subckt_current
	477	Ix(u14:1)	subckt_current
	478	Ix(u14:2)	subckt_current
	479	Ix(u14:3)	subckt_current
	480	Ix(u14:4)	subckt_current
	481	Ix(u14:5)	subckt_current
	482	Ix(u15:1)	subckt_current
	483	Ix(u15:2)	subckt_current
	484	Ix(u15:3)	subckt_current
	485	Ix(u15:4)	subckt_current
	486	Ix(u15:5)	subckt_current
	487	Ix(u16:1)	subckt_current
	488	Ix(u16:2)	subckt_current
	489	Ix(u16:3)	subckt_current
	490	Ix(u16:4)	subckt_current
	491	Ix(u16:5)	subckt_current
	492	Ix(u17:1)	subckt_current
	493	Ix(u17:2)	subckt_current
	494	Ix(u17:3)	subckt_current
	495	Ix(u17:4)	subckt_current
	496	Ix(u17:5)	subckt_current
	497	Ix(u18:1)	subckt_current
	498	Ix(u18:2)	subckt_current
	499	Ix(u18:3)	subckt_current
	500	Ix(u18:4)	subckt_current
	501	Ix(u18:5)	subckt_current
	502	Ix(u19:1)	subckt_current
	503	Ix(u19:2)	subckt_current
	504	Ix(u19:3)	subckt_current
	505	Ix(u19:4)	subckt_current
	506	Ix(u19:5)	subckt_current
	507	Ix(u20:1)	subckt_current
	508	Ix(u20:2)	subckt_current
	509	Ix(u20:3)	subckt_current
	510	Ix(u20:4)	subckt_current
	511	Ix(u20:5)	subckt_current
	512	Ix(u21:1)	subckt_current
	513	Ix(u21:2)	subckt_current
	514	Ix(u21:3)	subckt_current
	515	Ix(u21:4)	subckt_current
	516	Ix(u21:5)	subckt_current
	517	Ix(u22:1)	subckt_current
	518	Ix(u22:2)	subckt_current
	519	Ix(u22:3)	subckt_current
	520	Ix(u22:4)	subckt_current
	521	Ix(u22:5)	subckt_current
	522	Ix(u65:1)	subckt_current
	523	Ix(u65:2)	subckt_current
	524	Ix(u65:3)	subckt_current
	525	Ix(u65:4)	subckt_current
	526	Ix(u65:5)	subckt_current
	527	Ix(u66:1)	subckt_current
	528	Ix(u66:2)	subckt_current
	529	Ix(u66:3)	subckt_current
	530	Ix(u66:4)	subckt_current
	531	Ix(u66:5)	subckt_current
	532	Ix(u67:1)	subckt_current
	533	Ix(u67:2)	subckt_current
	534	Ix(u67:3)	subckt_current
	535	Ix(u67:4)	subckt_current
	536	Ix(u67:5)	subckt_current
	537	Ix(u68:1)	subckt_current
	538	Ix(u68:2)	subckt_current
	539	Ix(u68:3)	subckt_current
	540	Ix(u68:4)	subckt_current
	541	Ix(u68:5)	subckt_current
	542	Ix(u69:1)	subckt_current
	543	Ix(u69:2)	subckt_current
	544	Ix(u69:3)	subckt_current
	545	Ix(u69:4)	subckt_current
	546	Ix(u69:5)	subckt_current
	547	Ix(u70:1)	subckt_current
	548	Ix(u70:2)	subckt_current
	549	Ix(u70:3)	subckt_current
	550	Ix(u70:4)	subckt_current
	551	Ix(u70:5)	subckt_current
	552	Ix(u71:1)	subckt_current
	553	Ix(u71:2)	subckt_current
	554	Ix(u71:3)	subckt_current
	555	Ix(u71:4)	subckt_current
	556	Ix(u71:5)	subckt_current
	557	Ix(u72:1)	subckt_current
	558	Ix(u72:2)	subckt_current
	559	Ix(u72:3)	subckt_current
	560	Ix(u72:4)	subckt_current
	561	Ix(u72:5)	subckt_current
	562	Ix(u73:1)	subckt_current
	563	Ix(u73:2)	subckt_current
	564	Ix(u73:3)	subckt_current
	565	Ix(u73:4)	subckt_current
	566	Ix(u73:5)	subckt_current
	567	Ix(u74:1)	subckt_current
	568	Ix(u74:2)	subckt_current
	569	Ix(u74:3)	subckt_current
	570	Ix(u74:4)	subckt_current
	571	Ix(u74:5)	subckt_current
	572	Ix(u75:1)	subckt_current
	573	Ix(u75:2)	subckt_current
	574	Ix(u75:3)	subckt_current
	575	Ix(u75:4)	subckt_current
	576	Ix(u75:5)	subckt_current
	577	Ix(u76:1)	subckt_current
	578	Ix(u76:2)	subckt_current
	579	Ix(u76:3)	subckt_current
	580	Ix(u76:4)	subckt_current
	581	Ix(u76:5)	subckt_current
	582	Ix(u77:1)	subckt_current
	583	Ix(u77:2)	subckt_current
	584	Ix(u77:3)	subckt_current
	585	Ix(u77:4)	subckt_current
	586	Ix(u77:5)	subckt_current
	587	Ix(u78:1)	subckt_current
	588	Ix(u78:2)	subckt_current
	589	Ix(u78:3)	subckt_current
	590	Ix(u78:4)	subckt_current
	591	Ix(u78:5)	subckt_current
	592	Ix(u124:1)	subckt_current
	593	Ix(u124:2)	subckt_current
	594	Ix(u124:3)	subckt_current
	595	Ix(u124:4)	subckt_current
	596	Ix(u124:5)	subckt_current
	597	Ix(u125:1)	subckt_current
	598	Ix(u125:2)	subckt_current
	599	Ix(u125:3)	subckt_current
	600	Ix(u125:4)	subckt_current
	601	Ix(u125:5)	subckt_current
	602	Ix(u126:1)	subckt_current
	603	Ix(u126:2)	subckt_current
	604	Ix(u126:3)	subckt_current
	605	Ix(u126:4)	subckt_current
	606	Ix(u126:5)	subckt_current
Values:
0		4.000000000000000e-001
	3.300000000000000e+000
	-1.000000000000000e+001
	1.000000000000000e+001
	1.000000000000000e+000
	2.000000000000000e+000
	2.400000000000000e+000
	0.000000000000000e+000
	6.417043442705348e-014
	6.417179710235907e-014
	6.416993817478718e-014
	1.429627654388868e-006
	-9.999957110977985e-001
	-2.255643495652215e-006
	1.649986945805853e+000
	1.429627654425669e-006
	-9.999957110977984e-001
	-2.255643495652215e-006
	1.649986945805853e+000
	0.000000000000000e+000
	1.649984735049604e+000
	1.649984735049604e+000
	2.106178767722635e-006
	3.129820031418824e+000
	2.654015007863633e-007
	3.299999899847754e+000
	1.652499862046997e-007
	7.570000000000000e-001
	8.262503017993531e-007
	2.106178767722634e-006
	3.129820031418822e+000
	2.654015007863635e-007
	3.299999899847754e+000
	1.652499862046998e-007
	8.262503017993540e-007
	7.450787401574803e-001
	7.331574803149606e-001
	7.212362204724410e-001
	7.093149606299213e-001
	1.902876080062637e-009
	1.902878627905615e-009
	2.720662389813609e-015
	-1.902883904059386e-009
	-2.638059076500352e-015
	9.514460373279384e-010
	9.514460289455672e-010
	3.073175063527668e-016
	3.300000000000000e+000
	4.656320673163001e-009
	6.658464878404184e-015
	-4.656333604487532e-009
	4.656353271688364e-009
	3.082837043692519e-016
	-6.465618616692016e-015
	2.602333366560233e-011
	8.263012195879815e-007
	4.131506095968950e-007
	-8.993849698935925e-010
	-9.514320489505406e-010
	1.924168861811475e-002
	-4.131228681598749e-007
	2.659562512414962e-011
	4.131760597692116e-007
	1.629124660339519e-002
	1.924175154790761e-002
	1.629130352114074e-002
	5.076142814409208e-003
	5.076142586570784e-003
	1.521389408497127e-009
	1.521389408076133e-009
	1.521382751552164e-009
	9.514473503577095e-010
	1.924180065705540e-002
	2.602307557768139e-011
	2.602302894294864e-011
	1.629134969369520e-002
	1.924180063748899e-002
	1.629134971469579e-002
	5.076164554394884e-003
	5.076164326553811e-003
	3.108702527073628e-010
	3.108702526214282e-010
