time	V(vin)	V(n024)
0.000000000000000e+000	0.000000e+000	1.902876e-009
1.462857101484718e-007	1.838280e-006	1.902876e-009
2.925714202969436e-007	3.676561e-006	1.902876e-009
4.388571304454154e-007	5.514841e-006	1.902876e-009
5.851428405938872e-007	7.353122e-006	1.902876e-009
7.314285507423590e-007	9.191402e-006	1.902876e-009
8.777142608908308e-007	1.102968e-005	1.902876e-009
1.023999971039302e-006	1.286796e-005	1.902876e-009
4.095999884157209e-006	5.147185e-005	1.902885e-009
1.638399953662884e-005	2.058874e-004	1.902967e-009
3.276799907325767e-005	4.117748e-004	1.903079e-009
6.553599814651534e-005	8.235496e-004	1.903302e-009
1.310719962930307e-004	1.647099e-003	1.903748e-009
2.621439925860614e-004	3.294193e-003	1.904643e-009
4.234669383232785e-004	5.321417e-003	1.905745e-009
5.862210351614064e-004	7.366604e-003	1.906859e-009
7.462329592425429e-004	9.377303e-003	1.907955e-009
9.311010549576200e-004	1.170029e-002	1.909224e-009
1.192583407264194e-003	1.498588e-002	1.911023e-009
1.659262673979031e-003	2.084940e-002	1.914245e-009
2.106420968233611e-003	2.646697e-002	1.917352e-009
2.624335679773934e-003	3.297240e-002	1.920986e-009
3.190912147381030e-003	4.008744e-002	1.925027e-009
3.981438246823813e-003	5.001136e-002	1.930828e-009
4.958000746823813e-003	6.226378e-002	1.938322e-009
5.934563246823813e-003	7.450681e-002	1.946297e-009
6.911125746823813e-003	8.673863e-002	1.954899e-009
7.887688246823812e-003	9.895739e-002	1.964242e-009
8.864250746823812e-003	1.111612e-001	1.974423e-009
9.840813246823812e-003	1.233484e-001	1.985524e-009
1.081737574682381e-002	1.355169e-001	1.997624e-009
1.277050074682381e-002	1.597909e-001	2.025140e-009
1.570018824682381e-002	1.960169e-001	2.076177e-009
1.765331324682381e-002	2.200230e-001	2.118320e-009
1.960643824682381e-002	2.438966e-001	2.168952e-009
2.058300074682381e-002	2.557792e-001	2.198262e-009
2.155956324682381e-002	2.676232e-001	2.230848e-009
2.253612574682381e-002	2.794270e-001	2.267346e-009
2.351268824682381e-002	2.911887e-001	2.308615e-009
2.448925074682381e-002	3.029065e-001	2.355853e-009
2.546581324682381e-002	3.145787e-001	2.410798e-009
2.644237574682381e-002	3.262036e-001	2.476067e-009
2.741893824682381e-002	3.377793e-001	2.555767e-009
2.839550074682381e-002	3.493042e-001	2.656655e-009
2.937206324682381e-002	3.607764e-001	2.790664e-009
3.034862574682381e-002	3.721943e-001	2.981073e-009
3.132518824682382e-002	3.835562e-001	3.262511e-009
3.204642566376489e-002	3.919105e-001	3.575020e-009
3.256945858607217e-002	3.979488e-001	3.912540e-009
3.296202691611370e-002	4.024697e-001	4.280047e-009
3.326791109079304e-002	4.059855e-001	4.688119e-009
3.350601966221910e-002	4.087181e-001	5.137144e-009
3.368759433756928e-002	4.107995e-001	5.615156e-009
3.381400048501403e-002	4.122472e-001	6.082396e-009
3.392668805730123e-002	4.135370e-001	6.628098e-009
3.394888623125337e-002	4.137909e-001	6.766078e-009
3.399328257915765e-002	4.142987e-001	7.134516e-009
3.408207527496620e-002	4.153140e-001	8.047254e-009
3.409282789432990e-002	4.154370e-001	8.190505e-009
3.411433313305731e-002	4.156828e-001	8.587380e-009
3.415734361051211e-002	4.161743e-001	9.683617e-009
3.417867046111827e-002	4.164179e-001	1.046138e-008
3.418116576653885e-002	4.164464e-001	1.060394e-008
3.418615637738000e-002	4.165035e-001	1.106896e-008
3.419613759906229e-002	4.166175e-001	1.255111e-008
3.421024024888906e-002	4.167786e-001	1.571783e-008
3.422539828020418e-002	4.169517e-001	2.087887e-008
3.424751372191086e-002	4.172043e-001	3.211554e-008
3.427277225474144e-002	4.174928e-001	5.033287e-008
3.430050608579947e-002	4.178094e-001	7.680790e-008
3.433262838801606e-002	4.181761e-001	1.142988e-007
3.437265556648295e-002	4.186330e-001	1.711987e-007
3.441855938962440e-002	4.191568e-001	2.690805e-007
3.446672858322328e-002	4.197063e-001	4.789231e-007
3.452101316217988e-002	4.203253e-001	9.803314e-007
3.457926986319595e-002	4.209895e-001	1.885788e-006
3.463287450635278e-002	4.216004e-001	3.008603e-006
3.470969124553573e-002	4.224755e-001	5.334049e-006
3.478806445448332e-002	4.233680e-001	9.804223e-006
3.486541910210808e-002	4.242485e-001	1.771037e-005
3.492708236230190e-002	4.249500e-001	2.699327e-005
3.497603022000932e-002	4.255067e-001	3.639668e-005
3.502921721974679e-002	4.261115e-001	4.860727e-005
3.511311979629308e-002	4.270651e-001	7.082424e-005
3.519761360603776e-002	4.280249e-001	9.589056e-005
3.527799664781094e-002	4.289376e-001	1.218371e-004
3.536341798133042e-002	4.299071e-001	1.508261e-004
3.545181754821581e-002	4.309098e-001	1.815816e-004
3.555408369098478e-002	4.320691e-001	2.174096e-004
3.566774198656555e-002	4.333567e-001	2.569539e-004
3.580867738126951e-002	4.349521e-001	3.052358e-004
3.598180215583621e-002	4.369101e-001	3.634254e-004
3.617663226281259e-002	4.391110e-001	4.276388e-004
3.634545618064137e-002	4.410161e-001	4.821895e-004
3.650201484138656e-002	4.427809e-001	5.317624e-004
3.667577579023612e-002	4.447377e-001	5.857087e-004
3.683582309076521e-002	4.465382e-001	6.344152e-004
3.699797227263016e-002	4.483604e-001	6.827672e-004
3.715196022594447e-002	4.500893e-001	7.277607e-004
3.731041244085679e-002	4.518664e-001	7.731126e-004
3.746482604763227e-002	4.535966e-001	8.163896e-004
3.762298801303837e-002	4.553670e-001	8.597700e-004
3.777896264207795e-002	4.571112e-001	9.016113e-004
3.793906573114701e-002	4.588996e-001	9.435831e-004
3.809989739291651e-002	4.606944e-001	9.847472e-004
3.826742404657917e-002	4.625619e-001	1.026553e-003
3.844090155579311e-002	4.644935e-001	1.068685e-003
3.862781909022718e-002	4.665723e-001	1.112750e-003
3.883130074034847e-002	4.688325e-001	1.159139e-003
3.906320641066767e-002	4.714046e-001	1.209975e-003
3.933507174584504e-002	4.744148e-001	1.266761e-003
3.967695329469549e-002	4.781923e-001	1.333807e-003
4.011972496921244e-002	4.830715e-001	1.413218e-003
4.074394847243675e-002	4.899248e-001	1.510189e-003
4.172051097243675e-002	5.005859e-001	1.631943e-003
4.269707347243675e-002	5.111715e-001	1.718175e-003
4.367363597243675e-002	5.216801e-001	1.765468e-003
4.465019847243675e-002	5.321102e-001	1.774670e-003
4.562676097243675e-002	5.424601e-001	1.747690e-003
4.660332347243675e-002	5.527284e-001	1.687715e-003
4.757988597243675e-002	5.629134e-001	1.601062e-003
4.822498540196488e-002	5.695950e-001	1.531219e-003
4.863160604253749e-002	5.737874e-001	1.482141e-003
4.888872683820655e-002	5.764307e-001	1.449395e-003
4.907111798004153e-002	5.783020e-001	1.425472e-003
4.923877883757792e-002	5.800196e-001	1.403122e-003
4.926934215697618e-002	5.803324e-001	1.399008e-003
4.933046879577271e-002	5.809578e-001	1.390715e-003
4.945272207336576e-002	5.822076e-001	1.374025e-003
4.956463125931129e-002	5.833504e-001	1.358655e-003
4.961228270943335e-002	5.838366e-001	1.352078e-003
4.962202922736158e-002	5.839360e-001	1.350729e-003
4.964152226321802e-002	5.841349e-001	1.348027e-003
4.965626645769240e-002	5.842853e-001	1.345982e-003
4.965995250631099e-002	5.843228e-001	1.345470e-003
4.966087401846563e-002	5.843322e-001	1.345342e-003
4.966271704277493e-002	5.843510e-001	1.345086e-003
4.966640309139352e-002	5.843886e-001	1.344574e-003
4.967377518863071e-002	5.844638e-001	1.343552e-003
4.968625702037077e-002	5.845910e-001	1.341842e-003
4.969931064030377e-002	5.847241e-001	1.340286e-003
4.972528697489891e-002	5.849889e-001	1.339216e-003
4.976166584997580e-002	5.853596e-001	1.346900e-003
4.980941368380210e-002	5.858460e-001	1.384468e-003
4.986165405154486e-002	5.863779e-001	1.483782e-003
4.993219945907099e-002	5.870957e-001	1.738754e-003
5.003016868023459e-002	5.880919e-001	2.258814e-003
5.013665499475894e-002	5.891737e-001	2.899000e-003
5.024926683894892e-002	5.903165e-001	3.544729e-003
5.026094103567388e-002	5.904349e-001	3.603291e-003
5.028428942912382e-002	5.906717e-001	3.706053e-003
5.032491511633669e-002	5.910836e-001	3.866202e-003
5.039539758596689e-002	5.917978e-001	4.105552e-003
5.044504685482931e-002	5.923006e-001	4.247298e-003
5.049375959831013e-002	5.927936e-001	4.363582e-003
5.054837978433988e-002	5.933463e-001	4.475808e-003
5.062660406692707e-002	5.941373e-001	4.616331e-003
5.070892712778263e-002	5.949691e-001	4.747753e-003
5.079672931945108e-002	5.958555e-001	4.874275e-003
5.087825447045676e-002	5.966780e-001	4.982745e-003
5.097087826650924e-002	5.976116e-001	5.098754e-003
5.106848860128871e-002	5.985946e-001	5.215625e-003
5.118997381467430e-002	5.998169e-001	5.356513e-003
5.132996242335717e-002	6.012235e-001	5.515844e-003
5.151758377825074e-002	6.031058e-001	5.726926e-003
5.170785306965030e-002	6.050113e-001	5.938936e-003
5.187219112470799e-002	6.066543e-001	6.120250e-003
5.202864374193753e-002	6.082160e-001	6.291170e-003
5.220121642965642e-002	6.099360e-001	6.477898e-003
5.236192014055406e-002	6.115351e-001	6.650097e-003
5.252350981770319e-002	6.131405e-001	6.821544e-003
5.267788018641881e-002	6.146718e-001	6.983731e-003
5.283598772816749e-002	6.162378e-001	7.148206e-003
5.299084278965984e-002	6.177691e-001	7.307692e-003
5.314904741783275e-002	6.193312e-001	7.468971e-003
5.330577502210639e-002	6.208764e-001	7.627083e-003
5.346663899243192e-002	6.224597e-001	7.787630e-003
5.362922223706386e-002	6.240575e-001	7.948094e-003
5.379929037065914e-002	6.257259e-001	8.113988e-003
5.397721334109012e-002	6.274684e-001	8.285381e-003
5.417095203419448e-002	6.293622e-001	8.469464e-003
5.438529116584560e-002	6.314531e-001	8.669989e-003
5.463383928778105e-002	6.338719e-001	8.898303e-003
5.493753126823415e-002	6.368189e-001	9.171011e-003
5.532710753330702e-002	6.405858e-001	9.510473e-003
5.585995687584243e-002	6.457132e-001	9.954770e-003
5.668203158549586e-002	6.535668e-001	1.059844e-002
5.765859408549586e-002	6.628055e-001	1.130136e-002
5.863515658549586e-002	6.719444e-001	1.193255e-002
5.961171908549586e-002	6.809821e-001	1.248703e-002
6.058828158549586e-002	6.899173e-001	1.296869e-002
6.127032569882342e-002	6.960962e-001	1.326043e-002
6.172830494128197e-002	7.002165e-001	1.343233e-002
6.203702289597113e-002	7.029809e-001	1.353692e-002
6.224870253695908e-002	7.048703e-001	1.360328e-002
6.240582005183640e-002	7.062694e-001	1.364966e-002
6.254057311170046e-002	7.074672e-001	1.368783e-002
6.256612087305538e-002	7.076941e-001	1.369485e-002
6.261721639576524e-002	7.081476e-001	1.370852e-002
6.271940744118495e-002	7.090537e-001	1.373525e-002
6.280863913372728e-002	7.098439e-001	1.375801e-002
6.284887879568490e-002	7.102000e-001	1.376804e-002
6.287572936733415e-002	7.104375e-001	1.377463e-002
6.287696103375544e-002	7.104484e-001	1.377493e-002
6.287942436659801e-002	7.104702e-001	1.377553e-002
6.288435103228315e-002	7.105138e-001	1.377672e-002
6.289233237113161e-002	7.105843e-001	1.377865e-002
6.290541051293724e-002	7.107000e-001	1.378181e-002
6.291913016008195e-002	7.108213e-001	1.378512e-002
6.294656945437137e-002	7.110637e-001	1.379297e-002
6.298540386155727e-002	7.114068e-001	1.381352e-002
6.303280988149229e-002	7.118253e-001	1.387198e-002
6.308760211360324e-002	7.123088e-001	1.401757e-002
6.316047660057349e-002	7.129512e-001	1.435641e-002
6.325464235943389e-002	7.137805e-001	1.496302e-002
6.335595389431581e-002	7.146716e-001	1.569848e-002
6.347053038218402e-002	7.156779e-001	1.652467e-002
6.348688839314073e-002	7.158214e-001	1.663515e-002
6.351960441505417e-002	7.161084e-001	1.684387e-002
6.352778342053252e-002	7.161802e-001	1.689449e-002
6.354414143148923e-002	7.163236e-001	1.699167e-002
6.357685745340266e-002	7.166104e-001	1.717518e-002
6.362153880982731e-002	7.170020e-001	1.740463e-002
6.366365887012990e-002	7.173708e-001	1.759795e-002
6.370860546823236e-002	7.177642e-001	1.777732e-002
6.379849866443729e-002	7.185503e-001	1.808691e-002
6.388388079973276e-002	7.192961e-001	1.834229e-002
6.396125479438970e-002	7.199712e-001	1.854458e-002
6.404623775685937e-002	7.207119e-001	1.874500e-002
6.413044287627898e-002	7.214451e-001	1.892872e-002
6.422936619581836e-002	7.223054e-001	1.913270e-002
6.433533916233018e-002	7.232257e-001	1.934384e-002
6.446871666698013e-002	7.243822e-001	1.960513e-002
6.462696611821733e-002	7.257517e-001	1.991290e-002
6.484244850147725e-002	7.276119e-001	2.032964e-002
6.502044392093775e-002	7.291445e-001	2.067188e-002
6.517597084132769e-002	7.304806e-001	2.096911e-002
6.535308129623943e-002	7.319987e-001	2.130565e-002
6.551270939024587e-002	7.333639e-001	2.160725e-002
6.567642671692170e-002	7.347610e-001	2.191479e-002
6.582998096991220e-002	7.360685e-001	2.220158e-002
6.598943034601698e-002	7.374234e-001	2.249766e-002
6.614350826088369e-002	7.387298e-001	2.278211e-002
6.630242226582482e-002	7.400743e-001	2.307373e-002
6.645831827122364e-002	7.413903e-001	2.335808e-002
6.661932936140960e-002	7.427467e-001	2.364993e-002
6.678076516774639e-002	7.441035e-001	2.394066e-002
6.695019175831171e-002	7.455241e-001	2.424372e-002
6.712615652637255e-002	7.469960e-001	2.455620e-002
6.731798833642844e-002	7.485965e-001	2.489418e-002
6.752884113643980e-002	7.503507e-001	2.526238e-002
6.777350913732962e-002	7.523796e-001	2.568520e-002
6.807133554869471e-002	7.548397e-001	2.619329e-002
6.845489939038718e-002	7.579924e-001	2.683654e-002
6.898211965748902e-002	7.622971e-001	2.769857e-002
6.982751310000004e-002	7.691298e-001	2.903208e-002
7.080407560000004e-002	7.769145e-001	3.050144e-002
7.178063810000004e-002	7.845823e-001	3.189009e-002
7.262806502580968e-002	7.911404e-001	3.302654e-002
7.327326320542052e-002	7.960733e-001	3.384578e-002
7.374554297108700e-002	7.996510e-001	3.441839e-002
7.408627892553571e-002	8.022147e-001	3.481681e-002
7.432848115844973e-002	8.040282e-001	3.509241e-002
7.449263291855364e-002	8.052530e-001	3.527543e-002
7.462851577943773e-002	8.062643e-001	3.542490e-002
7.465457588669953e-002	8.064579e-001	3.545331e-002
7.470669610122314e-002	8.068451e-001	3.550968e-002
7.481093653027035e-002	8.076182e-001	3.562168e-002
7.490481312401116e-002	8.083133e-001	3.572181e-002
7.494618103574914e-002	8.086193e-001	3.576566e-002
7.495429063993496e-002	8.086792e-001	3.577422e-002
7.497050984830660e-002	8.087991e-001	3.579132e-002
7.497456465039951e-002	8.088291e-001	3.579559e-002
7.498267425458532e-002	8.088890e-001	3.580412e-002
7.498413873574296e-002	8.088998e-001	3.580566e-002
7.498706769805823e-002	8.089215e-001	3.580874e-002
7.499292562268876e-002	8.089647e-001	3.581490e-002
7.500464147194984e-002	8.090513e-001	3.582719e-002
7.501562726930808e-002	8.091324e-001	3.583871e-002
7.503759886402454e-002	8.092946e-001	3.586178e-002
7.507323867336724e-002	8.095576e-001	3.590160e-002
7.511923811669827e-002	8.098968e-001	3.596821e-002
7.517041420806576e-002	8.102739e-001	3.608947e-002
7.523611699749358e-002	8.107575e-001	3.635700e-002
7.532764374664552e-002	8.114302e-001	3.691408e-002
7.542288240228902e-002	8.121291e-001	3.764311e-002
7.554207301946803e-002	8.130021e-001	3.863986e-002
7.555635597249834e-002	8.131066e-001	3.875950e-002
7.558492187855896e-002	8.133155e-001	3.899185e-002
7.564205369068021e-002	8.137330e-001	3.942984e-002
7.572857811249036e-002	8.143646e-001	4.003132e-002
7.579153344722571e-002	8.148234e-001	4.041355e-002
7.584296448493960e-002	8.151979e-001	4.068134e-002
7.590162295433005e-002	8.156246e-001	4.094690e-002
7.597544653781606e-002	8.161610e-001	4.124027e-002
7.605671737808346e-002	8.167507e-001	4.152501e-002
7.614416314279489e-002	8.173842e-001	4.179905e-002
7.622855331145144e-002	8.179947e-001	4.204157e-002
7.632229134183223e-002	8.186718e-001	4.229555e-002
7.642629345196413e-002	8.194215e-001	4.256863e-002
7.655313644770584e-002	8.203341e-001	4.289747e-002
7.670610533963927e-002	8.214319e-001	4.329217e-002
7.690825619544280e-002	8.228781e-001	4.381190e-002
7.708461461965585e-002	8.241353e-001	4.426358e-002
7.724282283663611e-002	8.252597e-001	4.466717e-002
7.740300491942818e-002	8.263949e-001	4.507422e-002
7.757465272214367e-002	8.276075e-001	4.550875e-002
7.773324205071291e-002	8.287245e-001	4.590865e-002
7.789427590454441e-002	8.298553e-001	4.631313e-002
7.804837854586920e-002	8.309343e-001	4.669868e-002
7.820684699031068e-002	8.320406e-001	4.709359e-002
7.836185916266707e-002	8.331196e-001	4.747833e-002
7.852080052652156e-002	8.342226e-001	4.787121e-002
7.867854838125954e-002	8.353140e-001	4.825951e-002
7.884154600267536e-002	8.364384e-001	4.865899e-002
7.900742083791809e-002	8.375790e-001	4.906369e-002
7.918318866520598e-002	8.387836e-001	4.949046e-002
7.936993342165041e-002	8.400590e-001	4.994151e-002
7.957787280757267e-002	8.414737e-001	5.044084e-002
7.981385738458492e-002	8.430722e-001	5.100367e-002
8.010289211693891e-002	8.450201e-001	5.168729e-002
8.046932179206895e-002	8.474734e-001	5.254448e-002
8.097616418396440e-002	8.508371e-001	5.371103e-002
8.178636079054340e-002	8.561425e-001	5.553298e-002
8.276292329054340e-002	8.624192e-001	5.766268e-002
8.373948579054340e-002	8.685660e-001	5.971782e-002
8.449288232026093e-002	8.732189e-001	6.124768e-002
8.503987462487207e-002	8.765480e-001	6.232397e-002
8.543145296978631e-002	8.789058e-001	6.307566e-002
8.571038474688193e-002	8.805723e-001	6.360129e-002
8.590576151744626e-002	8.817332e-001	6.396502e-002
8.593672144123166e-002	8.819166e-001	6.402220e-002
8.599864128880243e-002	8.822832e-001	6.413590e-002
8.612248098394397e-002	8.830147e-001	6.436214e-002
8.628161625208258e-002	8.839515e-001	6.465135e-002
8.629998671335994e-002	8.840594e-001	6.468457e-002
8.633672763591463e-002	8.842751e-001	6.475075e-002
8.639150459020910e-002	8.845963e-001	6.484926e-002
8.640010902991496e-002	8.846467e-001	6.486471e-002
8.641731790932668e-002	8.847476e-001	6.489557e-002
8.642162012917960e-002	8.847727e-001	6.490328e-002
8.643022456888547e-002	8.848231e-001	6.491869e-002
8.644743344829718e-002	8.849239e-001	6.494949e-002
8.644946560649000e-002	8.849357e-001	6.495313e-002
8.645352992287562e-002	8.849595e-001	6.496040e-002
8.646165855564687e-002	8.850071e-001	6.497493e-002
8.647791582118938e-002	8.851022e-001	6.500396e-002
8.649589567735387e-002	8.852073e-001	6.503604e-002
8.653185538968283e-002	8.854175e-001	6.510081e-002
8.657300953048323e-002	8.856577e-001	6.518234e-002
8.662570604858660e-002	8.859650e-001	6.531939e-002
8.668531123073273e-002	8.863121e-001	6.555967e-002
8.677450917014515e-002	8.868306e-001	6.609856e-002
8.687281685318347e-002	8.874008e-001	6.687729e-002
8.699180447080383e-002	8.880891e-001	6.795096e-002
8.700572577195720e-002	8.881695e-001	6.808096e-002
8.703356837426392e-002	8.883302e-001	6.833963e-002
8.708925357887735e-002	8.886514e-001	6.884766e-002
8.710317488003072e-002	8.887315e-001	6.897233e-002
8.710665520531906e-002	8.887516e-001	6.900301e-002
8.711361585589574e-002	8.887917e-001	6.906369e-002
8.712753715704910e-002	8.888718e-001	6.918229e-002
8.715537975935582e-002	8.890321e-001	6.940988e-002
8.718517249396447e-002	8.892035e-001	6.963827e-002
8.722170284264752e-002	8.894134e-001	6.989092e-002
8.729476354001362e-002	8.898327e-001	7.033383e-002
8.737285879715860e-002	8.902801e-001	7.074175e-002
8.744722739772461e-002	8.907053e-001	7.107371e-002
8.752549188388686e-002	8.911519e-001	7.137846e-002
8.761107723309711e-002	8.916394e-001	7.167725e-002
8.769767168150963e-002	8.921315e-001	7.195606e-002
8.779560689200236e-002	8.926868e-001	7.225616e-002
8.790358191705187e-002	8.932975e-001	7.258007e-002
8.803646444818054e-002	8.940468e-001	7.297610e-002
8.819831208918115e-002	8.949561e-001	7.345701e-002
8.841482222911710e-002	8.961666e-001	7.409827e-002
8.859213662448649e-002	8.971531e-001	7.462167e-002
8.874732576554210e-002	8.980128e-001	7.507816e-002
8.892364965522287e-002	8.989854e-001	7.559511e-002
8.908338286038187e-002	8.998628e-001	7.606189e-002
8.924691147139885e-002	9.007572e-001	7.653818e-002
8.940064611345354e-002	9.015946e-001	7.698449e-002
8.956001918633792e-002	9.024591e-001	7.744563e-002
8.971431925829111e-002	9.032927e-001	7.789062e-002
