time,VIN,VOUT
0.0,0.0,7.611439071387441e-09
9.999999717180685e-10,1.256637025895794e-08,7.611439069347528e-09
1.999999943436137e-09,2.513274051791588e-08,7.611439070967945e-09
3.999999886872274e-09,5.026548103583174e-08,7.611439015832696e-09
7.999999773744548e-09,1.005309620716634e-07,7.611439056458214e-09
1.59999995474891e-08,2.010619241433257e-07,7.611439014260923e-09
3.199999909497819e-08,4.021238482866432e-07,7.611439042657728e-09
6.399999818995639e-08,8.042476965732215e-07,7.61143904185443e-09
1.279999963799128e-07,1.608495393145923e-06,7.611439048815662e-09
2.559999927598256e-07,3.216990786287684e-06,7.611439064447212e-09
5.119999855196511e-07,6.433981572542075e-06,7.61143908704742e-09
1.023999971039302e-06,1.286796314481781e-05,7.6114390549385e-09
2.047999942078604e-06,2.573592628750488e-05,7.611439730170492e-09
4.095999884157209e-06,5.147185255796389e-05,7.61145442045545e-09
8.191999768314417e-06,0.0001029437049795607,7.611534540030298e-09
1.638399953662884e-05,0.0002058874088681852,7.611720783850148e-09
3.276799907325767e-05,0.0004117748090088802,7.612076655722751e-09
6.553599814651534e-05,0.0008235495481978412,7.612799868156724e-09
0.0001310719962930307,0.0016470985378364,7.614238259605686e-09
0.0002621439925860614,0.003294192607200815,7.617142554355494e-09
0.0004186202490755104,0.005260512933896887,7.620591430330746e-09
0.0005780678778973645,0.007264151306736084,7.624127344618981e-09
0.0007326716403575334,0.009206893293125198,7.627536081528924e-09
0.000904483114198611,0.01136582530324431,7.631353878058137e-09
0.001123977180969883,0.01412384419824941,7.636215098726114e-09
0.001482829481058356,0.01863270650487862,7.644205589461917e-09
0.001927734212165762,0.02422225332692419,7.65415220163215e-09
0.002396452750316622,0.03011016180799761,7.664741930193106e-09
0.002936936510187339,0.03689825481059186,7.677131964713379e-09
0.003610635125300493,0.0453570128717873,7.693061099780484e-09
0.004570094720967822,0.05739794071191439,7.717243296591005e-09
0.005546657220967822,0.06964492592531243,7.744702667799576e-09
0.006523219720967822,0.0818814228690403,7.776431892459496e-09
0.007499782220967822,0.09410558877166762,7.814190850633397e-09
0.008476344720967822,0.1063155827187735,7.860230278272877e-09
0.009452907220967822,0.1185095659301814,7.917961913416128e-09
0.01042946972096782,0.1306857020368726,7.99316424215233e-09
0.01124267746353667,0.1408101316342938,8.076362395631671e-09
0.01193629207010858,0.1494340487629569,8.171303581002388e-09
0.01253862611884983,0.1569138607601119,8.283149817219604e-09
0.01306620962171286,0.1634580459627965,8.418680438125307e-09
0.01352185051134904,0.1691040782380806,8.584152183849148e-09
0.01390783321972063,0.1738826175375466,8.786297946195796e-09
0.01422796489122176,0.1778428098519588,9.034051502780088e-09
0.01448999393929905,0.1810821039255518,9.338764098653415e-09
0.01469721519575832,0.1836424564974917,9.70925684238244e-09
0.01485141138030004,0.1855468429277895,1.01372767698697e-08
0.01493036828703748,0.186521724021842,1.044898636531583e-08
0.01504258290669512,0.187906922005019,1.113967391041838e-08
0.01506124726558788,0.1881372821291424,1.130417093442522e-08
0.0150985759833734,0.1885979713161193,1.168853772015005e-08
0.01514445751385794,0.1891641574495524,1.23768411500433e-08
0.01515333883243137,0.1892737472200339,1.255780318958393e-08
0.01517110146957824,0.1894929196869153,1.29767011627561e-08
0.01517554212886496,0.1895477113288733,1.310596650870054e-08
0.01518442344743839,0.1896572928418802,1.339016951785321e-08
0.01518664377708175,0.1896846878510681,1.347215683597937e-08
0.01519108443636847,0.1897394774264181,1.364670744408913e-08
0.01519219460119015,0.189753174727943,1.369467212915334e-08
0.01519441493083351,0.189780569220199,1.379437615849346e-08
0.01519885559012022,0.1898353577614611,1.403929230637666e-08
0.01520717566677515,0.1899380086892572,1.482928744255966e-08
0.01522074673227237,0.1901054404869431,1.712690390515638e-08
0.01523511825001631,0.1902827417642647,2.088397488480344e-08
0.0152571449431954,0.1905544728205929,2.986421237251443e-08
0.01528105784612076,0.1908494564679432,4.479317071237232e-08
0.01530784415683066,0.1911798652965238,6.81204766793578e-08
0.0153375257463001,0.1915459620530768,1.005187085990597e-07
0.01537454168391181,0.192002484311185,1.47329153319561e-07
0.01541523379070576,0.1925042972895641,2.085781806587072e-07
0.01545929555355955,0.1930476079287334,3.151877444428493e-07
0.01550841752273893,0.1936532444764843,5.740370690404597e-07
0.01556304962316066,0.1943267300749237,1.211071999905517e-06
0.0156175393090592,0.1949983688045819,2.273780747974703e-06
0.01567723445072189,0.1957340649151663,3.640037995540062e-06
0.01576036765416219,0.1967584332817594,6.753651250181059e-06
0.01583982539168025,0.1977373118231526,1.360984121067464e-05
0.01584834187365353,0.1978422188293488,1.473022318939355e-05
0.0158653748376001,0.1980520260425513,1.704624012519619e-05
0.01589944076549323,0.1984716132385547,2.221631573768669e-05
0.01593744596999927,0.1989396772496962,2.86923159578024e-05
0.01597329880731006,0.1993811915721656,3.529126621759381e-05
0.01604500448193164,0.2002640987125251,4.938328903301598e-05
0.0161200923629218,0.2011884764310761,6.489337638385593e-05
0.01619526620610244,0.202113732961113,8.077774473120844e-05
0.01627617098045737,0.2031093255415534,9.801531307705308e-05
0.01636231349487157,0.2041691415616409,0.0001163389254092216
0.01645023659679948,0.2052506175223875,0.000134868878431408
0.01654621087693085,0.2064308389005486,0.0001548367489851775
0.01665594463250459,0.2077798962038377,0.0001773063077357863
0.01678701839609716,0.209390787682517,0.0002037296978072953
0.01694903790372564,0.2113812155901667,0.0002359872421206605
0.01715982436972313,0.2139694382977798,0.0002775704781653538
0.01733555840785089,0.216126109510224,0.0003119242427528108
0.01749125501238004,0.2180359938975043,0.0003421195916417451
0.01766746987463748,0.2201965624300955,0.000375991486035963
0.01782716522545817,0.2221536530530393,0.0004064128061757978
0.01799046976260703,0.2241540495205544,0.0004372250947075684
0.0181440493569309,0.2260344592687821,0.0004659325769564236
0.01830312929355385,0.227981326776946,0.0004953664464614012
0.01845708188498434,0.229864576899764,0.00052356391714659
0.01861547194256559,0.2318012110933131,0.0005522528046019394
0.01877083391262471,0.2336999287808348,0.000580081562315854
0.01893069545328351,0.235652706933301,0.0006083680493391704
0.0189505953485128,0.2358957263982634,0.0006118663957741379
0.01899039513897137,0.2363817210579628,0.0006188444316368545
0.01900034508658601,0.2365032104888436,0.0006205847542288249
0.01902024498181529,0.2367461782564569,0.00062406250192745
0.01906004477227386,0.237232069361913,0.0006310008336494808
0.01906506041036721,0.2372932979874689,0.0006318736304398141
0.01907509168655392,0.2374157524103413,0.0006336184591822552
0.01907665788388518,0.2374348710520418,0.0006338907206221839
0.01907979027854771,0.2374731080595185,0.0006344351948197916
0.01908605506787275,0.2375495809705669,0.000635523960627416
0.01909730520278499,0.237686905207077,0.0006374784408658082
0.0191088382439192,0.2378276777936952,0.0006394809945811487
0.01913190432618761,0.2381092079777909,0.0006434833690011026
0.01915485922372013,0.2383893612497091,0.0006474635492178244
0.01918253557821105,0.2387271112115169,0.0006522590798775493
0.01921065731802761,0.2390702668812583,0.0006571267402636044
0.01924708917640093,0.23951478241441,0.000663422196897012
0.01928927453652576,0.2400294353439866,0.0006706961472933795
0.01933310737814239,0.2405641157583164,0.0006782606179973663
0.01938283588643771,0.2411706241293797,0.0006869345030689683
0.01943687717926294,0.2418296261174346,0.0006966494994423345
0.01949245524937516,0.2425072518739893,0.0007070362999792967
0.01955019548360555,0.2432111141450403,0.0007180031100354331
0.01963159239166164,0.2442031373135844,0.0007344039818107222
0.01970978898304459,0.2451559160735168,0.0007536642468105499
0.01971972096364443,0.2452769144012283,0.0007565543756708132
0.01973958492484411,0.2455188995925298,0.000762478406296297
0.01977931284724347,0.2460028240658745,0.0007751589406263582
0.01981710917055281,0.2464631628844137,0.0007880205760065863
0.01985686609649292,0.2469473207824309,0.00080216471224106
0.0199280418782716,0.2478139419372114,0.0008285145416233751
0.02000247140055777,0.2487199678820968,0.0008569702795318842
0.02007786386951769,0.2496374938918314,0.0008863060879205752
0.02015865860258953,0.2506205166798846,0.0009180005035559116
0.02024452445141044,0.2516649561095506,0.0009517126999963287
0.02033258170827909,0.2527357466569422,0.0009860968483936126
0.02042896993996151,0.2539074883927035,0.001023376995990093
0.0205394834753356,0.2552504856150394,0.001065559415107483
0.02067166887475624,0.2568561997536632,0.001115259518068202
0.02083571591920754,0.2588479652472888,0.001175991425590051
0.0210493527616554,0.2614401713900786,0.00125378180244113
0.0212251747055634,0.2635721300837093,0.001316694857086547
0.02138026897022911,0.2654516840615634,0.001371344965924422
0.02155522307508809,0.2675707045434462,0.001431996999637552
0.02171486231529093,0.2695031052571453,0.001486410008319461
0.02187786986344701,0.2714751594506069,0.001541016242439453
0.02203161952120918,0.2733341685579045,0.001591631511491123
0.02219051029380166,0.2752542674585048,0.001642993387823875
0.02234456392902215,0.2771148647909034,0.001691869957693245
0.02250283742895539,0.2790253462700745,0.001741101921577075
0.02265830837728437,0.2809009242350538,0.00178848836232682
0.02281811304864575,0.2828276660728883,0.001836150936102863
0.02297800672306595,0.2847543394872935,0.001882776086380855
0.02314446693274145,0.2867589162719969,0.001930143957865255
0.02331603416866026,0.2888236806189513,0.001977706851702892
0.02350047633245966,0.2910418934815688,0.002027365784817086
0.02370025046666323,0.2934427336646414,0.002079413539006273
0.02392734770343132,0.2961696897909136,0.002136312976290568
0.02419263702859313,0.2993521957037383,0.002199675003721112
0.02452676900618941,0.3033558244899199,0.002274566992691747
0.02478064887337768,0.3063942863334116,0.002327736370061342
0.02493200189418889,0.308204213948405,0.002357857888205665
0.02495249707203173,0.3084492162472143,0.002361845455667622
0.02499348742771741,0.3089391594484203,0.002369759249064764
0.02507546813908878,0.3099187998102255,0.002385316221815817
0.02515316288136942,0.3108469208055332,0.002399739186561977
0.02518989184233518,0.3112855722374493,0.002406444305069005
0.02519907408257661,0.3113952247377358,0.002408109709217628
0.02521743856305949,0.3116145172988582,0.002411428926221568
0.02521931492821377,0.311636922275884,0.002411766697334621
0.02522306765852232,0.3116817317101374,0.002412441991808823
0.02523057311913941,0.3117713484991012,0.002413790896068443
0.02523956777414414,0.311878742930902,0.002415404008283017
0.02525476886835967,0.3120602319822529,0.002418121622168524
0.02527061756998751,0.3122494408292279,0.00242094367094485
0.02529278473121461,0.3125140614784454,0.002424871981906695
0.02531796458877495,0.3128146167935774,0.002429308267288801
0.02534552820654537,0.3131435895703029,0.002434132560994252
0.02537753158930158,0.3135255039662668,0.002439689768715434
0.02541734887346307,0.3140005952508321,0.002446534229002548
0.02546128592692538,0.3145247514989273,0.00245400569094559
0.02550877996876118,0.3150912337378155,0.002462039509803067
0.02556153546012405,0.3157203400051254,0.002471050542066303
0.02561948135468907,0.3164111816210465,0.002481238419341786
0.02567266695190797,0.3170451224416811,0.002490768249708215
0.02574778729019658,0.3179402710425723,0.002504427979266841
0.02581794094109483,0.3187759798008896,0.00251891652416499
0.02589866041132284,0.3197372478278097,0.002540287999267245
0.02597137193822992,0.3206028696409255,0.002563493485956388
0.02601734938344345,0.3211500873971528,0.002579456112244687
0.02607573348856012,0.3218448131300992,0.002600584058060461
0.02615572727374102,0.3227963959882658,0.002630683543803559
0.02623836035684739,0.3237790326544587,0.00266257063155055
0.02632870633552676,0.3248529881587216,0.002697805534950947
0.02641132011298532,0.3258346634212829,0.002729952996175523
0.02650523307541251,0.3269501770189665,0.002766075293653921
0.0266026077903984,0.3281063290178811,0.002802806918385429
0.02672412070980805,0.329548390127287,0.002847422595792028
0.02686262082425929,0.3311911104656063,0.002896637974287103
0.02704732641233788,0.333380302130154,0.002959818139872149
0.02723863435775053,0.3356458534646429,0.003022520757877059
0.02739140919636333,0.3374536866225172,0.003070564139552265
0.0274160590099622,0.3377452593371399,0.003078146142118625
0.02746535863715992,0.3383283075179859,0.003093177341931944
0.02751888088902008,0.3389611480776879,0.003109274441151711
0.02753021258421304,0.3390951129968342,0.003112654455965256
0.02755287597459895,0.3393630222046403,0.003119387461837815
0.02756836416629209,0.3395460958883692,0.003123962900511031
0.02757223621421537,0.3395918622998321,0.003125104112357332
0.02757998031006194,0.3396833927106362,0.003127383822424936
0.02759546850175507,0.3398664438807238,0.003131927850736744
0.02759856506329475,0.3399030398442282,0.003132833884889321
0.02760475818637411,0.3399762302271523,0.003134644471378664
0.02761714443253283,0.3401226048151115,0.003138256166588299
0.02763255786808533,0.3403047417365652,0.003142739900280845
0.02764951699342096,0.3405051289566773,0.003147759671754594
0.02768343524409223,0.3409058569927626,0.003159688757694587
0.0277266984191622,0.34141690098796,0.003184178132743587
0.02777763382543988,0.3420184434602223,0.003238171791250637
0.02783931378488091,0.3427466905181989,0.003354406252583906
0.02792651006821078,0.3437758540009641,0.003611623792012593
0.0280226804386487,0.3449104584586739,0.003960786405883141
0.02814250693839781,0.3463234495518491,0.004368356371245172
0.02815633893307704,0.3464865055948456,0.00441031016148606
0.02818400292243549,0.3468125862710474,0.004490859667678432
0.02823933090115239,0.347464621846368,0.004636891348616463
0.02824817305709399,0.3475688103520543,0.00465863286838772
0.02826585736897721,0.3477771744885967,0.00470098934576079
0.02830122599274364,0.3481938512263465,0.004779761452865091
0.02834312226381985,0.3486873409868893,0.004863410969377396
0.02838881804241824,0.3492254743637088,0.004943876858213674
0.02843276555949826,0.3497429108246279,0.00501313968738101
0.02852066059365829,0.3507774635823474,0.005134626460047759
0.02860621271658108,0.3517840285549946,0.005238031166669248
0.02868461686389415,0.3527061368730421,0.005324485423147355
0.02876995491315496,0.3537094053889693,0.005412041775617904
0.02885480767621825,0.354706565377405,0.005494447646877253
0.02895369356378951,0.3558681288025132,0.005586578468201304
0.02905990749117577,0.3571151589192613,0.005682510859037466
0.02919269226378516,0.3586732553310972,0.005800238806845745
0.02935005731421774,0.3605184832945089,0.005938180196490808
0.02954339027186609,0.3627835322777878,0.00610573440113234
0.02972950614992538,0.3649620047080897,0.006264993892066128
0.02989147105222196,0.36685616762393,0.006401918174759192
0.03004983940915014,0.3687067999132834,0.006534281610374254
0.03021844450801133,0.3706754497737366,0.006673504388687203
0.03037608124512484,0.3725145269751388,0.006802074943889912
0.0305367027165199,0.3743869221440553,0.006931455120311961
0.03069090186107521,0.376183016106499,0.007054114581479049
0.03084909796907523,0.3780241983057692,0.007178336137830301
0.03100402645345382,0.3798259020055249,0.007298406085944112
0.03116271131861814,0.3816697971134707,0.00741971649012997
0.03132038230823824,0.3835004079907103,0.00753858415760343
0.03148314246519981,0.3853885264517531,0.007659498055422784
0.03164887450895428,0.387309463979252,0.007780761421522674
0.03182437658492838,0.3893418106854634,0.007907077207655896
0.03201102211276932,0.3915011225130457,0.008039059475000571
0.03221900402662081,0.3939047384810524,0.008183209986107531
0.03236552819867367,0.3955964819358633,0.008282929947596177
0.03238664475446621,0.3958401797016065,0.008297165552069054
0.0324288778660513,0.3963274915965395,0.008325560500205777
0.03250390346224003,0.3971929081810056,0.008375675730044949
0.03251404160371446,0.3973098240870913,0.008382417194751536
0.03253431788666332,0.3975436365515523,0.008395879887348202
0.03257487045256104,0.3980111840365064,0.008422710629417702
0.03257980926831022,0.3980681186498198,0.008425970339757852
0.03258968689980858,0.3981819832763736,0.008432485364834638
0.03260209456079804,0.3983250041832476,0.008440657775521958
0.03261455422359988,0.3984686147612129,0.008448853655320809
0.03263316828981334,0.3986831430432392,0.008461155334797212
0.03265293995769517,0.3989109888661177,0.008474676334884333
0.03269248329345882,0.3993666066217734,0.008507051130335836
0.03273611751770979,0.3998692450877514,0.00855931438324798
0.03279292851090252,0.4005234913502606,0.008671599746653443
0.03285993634774056,0.4012949040091025,0.008883885796670916
0.0329648688896618,0.4025023444380688,0.009357901418888303
0.03307101642258686,0.4037230534902586,0.009885259844459494
0.03318582224624509,0.4050425252253515,0.01037506219750834
0.03320193062527111,0.4052275926258093,0.01043517823865905
0.03323414738332315,0.4055976776060306,0.01054995917715436
0.03324220157283616,0.405690188466246,0.01057714422137712
0.03325830995186218,0.4058751977182348,0.01063056814189753
0.03329052670991422,0.4062451663219131,0.01073112918973712
0.03332539632960107,0.40664552464056,0.01083068100861621
0.03337032557265418,0.4071612682011638,0.0109463052727956
0.03341311183691422,0.4076522918207796,0.01104595927005689
0.0334986843654343,0.408633985377249,0.01122398103729099
0.0335811761168659,0.4095798887619504,0.01137721450504192
0.03365849344874474,0.4104660593665151,0.01151050951037299
0.03374434913297177,0.4114496380103752,0.0116498825910786
0.03382787303721024,0.4124060437619967,0.01177955924402394
0.03392490398128449,0.4135165438022357,0.01192515176649825
0.03402773367433601,0.4146927383372627,0.01207559023958096
0.03413665807221783,0.4159378905340808,0.012232391780224
0.03415265620339146,0.4161207050872457,0.01225529673387003
0.03418465246573872,0.4164862837318143,0.01230104077245475
0.03419265153132554,0.4165776678747027,0.01231246261695391
0.03420864966249917,0.4167604235321112,0.01233529839283781
0.03421264919529258,0.4168061098148801,0.01234100413990144
0.03422064826087939,0.4168974792217099,0.01235241335438001
0.03423664639205303,0.4170802053973075,0.01237521837537015
0.03423861157141513,0.4171026499634663,0.01237801841570242
0.03424254193013932,0.4171475383326581,0.0123836180560728
0.03425040264758771,0.4172373120181554,0.01239481440459766
0.03426331770695513,0.4173848002083377,0.01241320144646945
0.03427678362090018,0.4175385673742854,0.01243236177184514
0.03429928145798488,0.4177954433234389,0.01246434873749534
0.03432367036361929,0.4180738734045131,0.01249899031422202
0.03435138023529639,0.4183901688404233,0.01253830573604299
0.03438181824108275,0.4187375462021215,0.01258143697033967
0.03442023664155496,0.4191759132999499,0.01263579070760055
0.03446582352816115,0.419695948524177,0.01270016595651713
0.03451244580152238,0.4202276525257228,0.01276591294944503
0.0345659044164936,0.4208371440976446,0.01284131498339834
0.03462279644937966,0.4214855720891538,0.01292178462178611
0.03467616537999989,0.4220936496324159,0.01299743103006886
0.0347454809885494,0.4228831377645705,0.01309575399946353
0.03481427839948249,0.4236664064907453,0.01319470524359335
0.0348225638247073,0.423760715933062,0.01320683247751895
0.03483913467515692,0.4239493210353383,0.01323127463337009
0.03487227637605615,0.4243264760818398,0.0132810801303306
0.03488056180128096,0.424420753346242,0.01329372450892336
0.03489713265173058,0.4246092940712244,0.01331917546536566
0.03493027435262982,0.4249863202772876,0.01337090468856919
0.03497045810324524,0.4254433592844198,0.01343474084070923
0.03501475956287208,0.4259471062573991,0.0135063470379833
0.03505811167385162,0.4264399304951639,0.01357741911698981
