time	V(spikes1)	V(spikes2)	V(spikes3)	V(spikes4)	V(spikes5)	V(spikes6)	V(spikes7)	V(spikes8)
0.000000000000000e+000	2.654015e-007	2.654015e-007	2.654015e-007	2.654015e-007	2.654015e-007	2.654015e-007	2.654015e-007	2.654015e-007
2.340571362375549e-006	2.654015e-007	2.654015e-007	2.654015e-007	2.654015e-007	2.654012e-007	2.654012e-007	2.654012e-007	2.654012e-007
4.681142724751098e-006	2.654015e-007	2.654015e-007	2.654015e-007	2.654015e-007	2.654013e-007	2.654013e-007	2.654013e-007	2.654013e-007
7.021714087126647e-006	2.654015e-007	2.654015e-007	2.654015e-007	2.654015e-007	2.654017e-007	2.654017e-007	2.654017e-007	2.654017e-007
9.362285449502195e-006	2.654015e-007	2.654015e-007	2.654015e-007	2.654015e-007	2.654026e-007	2.654026e-007	2.654026e-007	2.654026e-007
1.170285681187774e-005	2.654015e-007	2.654015e-007	2.654015e-007	2.654015e-007	2.654038e-007	2.654038e-007	2.654038e-007	2.654038e-007
1.404342817425329e-005	2.654015e-007	2.654015e-007	2.654015e-007	2.654015e-007	2.654054e-007	2.654054e-007	2.654054e-007	2.654054e-007
1.638399953662884e-005	2.654015e-007	2.654015e-007	2.654015e-007	2.654015e-007	2.654073e-007	2.654074e-007	2.654074e-007	2.654074e-007
3.276799907325767e-005	2.654015e-007	2.654015e-007	2.654015e-007	2.654015e-007	2.655706e-007	2.655713e-007	2.655721e-007	2.655729e-007
6.553599814651534e-005	2.654015e-007	2.654015e-007	2.654015e-007	2.654015e-007	2.699263e-007	2.699660e-007	2.700060e-007	2.700464e-007
1.310719962930307e-004	2.654015e-007	2.654015e-007	2.654015e-007	2.654015e-007	3.689235e-007	3.707277e-007	3.725663e-007	3.744398e-007
2.621439925860614e-004	2.654015e-007	2.654015e-007	2.654015e-007	2.654015e-007	1.187224e-006	1.209397e-006	1.232191e-006	1.255627e-006
3.772266399417615e-004	2.654015e-007	2.654015e-007	2.654015e-007	2.654015e-007	3.354280e-006	3.448615e-006	3.546359e-006	3.647655e-006
4.937120597047042e-004	2.654015e-007	2.654015e-007	2.654015e-007	2.654015e-007	8.187974e-006	8.481795e-006	8.788457e-006	9.108607e-006
6.122479053786104e-004	2.654015e-007	2.654015e-007	2.654015e-007	2.654015e-007	1.603678e-005	1.669891e-005	1.739335e-005	1.812187e-005
6.753397539335314e-004	2.654015e-007	2.654015e-007	2.654015e-007	2.654015e-007	2.304469e-005	2.410569e-005	2.522444e-005	2.640453e-005
7.539056741584493e-004	2.654015e-007	2.654015e-007	2.654015e-007	2.654015e-007	3.467791e-005	3.651330e-005	3.846512e-005	4.054193e-005
9.110375146082849e-004	2.654015e-007	2.654015e-007	2.654015e-007	2.654015e-007	6.669133e-005	7.110348e-005	7.587222e-005	8.103171e-005
1.129351332115792e-003	2.654015e-007	2.654015e-007	2.654015e-007	2.654015e-007	1.302351e-004	1.411996e-004	1.533236e-004	1.667565e-004
1.455534073910812e-003	2.654015e-007	2.654015e-007	2.654015e-007	2.654015e-007	2.648689e-004	2.947864e-004	3.291786e-004	3.689167e-004
1.979062822270532e-003	2.654015e-007	2.654015e-007	2.654015e-007	2.654015e-007	5.452448e-004	6.287540e-004	7.297673e-004	8.532137e-004
2.505413549852151e-003	2.654015e-007	2.654015e-007	2.654015e-007	2.654015e-007	8.744812e-004	1.045776e-003	1.265402e-003	1.552739e-003
3.138503586455120e-003	2.654015e-007	2.654015e-007	2.654015e-007	2.654015e-007	1.295620e-003	1.627374e-003	2.091307e-003	2.767422e-003
3.883429986882258e-003	2.654015e-007	2.654015e-007	2.654015e-007	2.654015e-007	1.787167e-003	2.385685e-003	3.325269e-003	4.896434e-003
4.595967911294443e-003	2.654015e-007	2.654015e-007	2.654015e-007	2.654015e-007	2.238811e-003	3.184979e-003	4.879402e-003	8.126185e-003
5.273751223833220e-003	2.654015e-007	2.654015e-007	2.654015e-007	2.654015e-007	2.646332e-003	4.030278e-003	6.886439e-003	1.313840e-002
5.842969942952738e-003	2.654015e-007	2.654015e-007	2.654015e-007	2.654015e-007	2.972218e-003	4.825827e-003	9.159242e-003	1.989355e-002
6.252666092088377e-003	2.654015e-007	2.654015e-007	2.654015e-007	2.654015e-007	3.198306e-003	5.469574e-003	1.130584e-002	2.752465e-002
6.573561575107491e-003	2.654015e-007	2.654015e-007	2.654015e-007	2.654015e-007	3.371141e-003	6.032431e-003	1.342819e-002	3.664715e-002
6.835897838946071e-003	2.654015e-007	2.654015e-007	2.654015e-007	2.654015e-007	3.510249e-003	6.539404e-003	1.554148e-002	4.784001e-002
7.053676273072898e-003	2.654015e-007	2.654015e-007	2.654015e-007	2.654015e-007	3.624515e-003	6.997324e-003	1.762435e-002	6.181744e-002
7.231694563026491e-003	2.654015e-007	2.654015e-007	2.654015e-007	2.654015e-007	3.717243e-003	7.399512e-003	1.960036e-002	7.914547e-002
7.371445898964108e-003	2.654015e-007	2.654015e-007	2.654015e-007	2.654015e-007	3.789680e-003	7.734204e-003	2.135595e-002	9.954670e-002
7.466244893425543e-003	2.654015e-007	2.654015e-007	2.654015e-007	2.654015e-007	3.838672e-003	7.970570e-003	2.265483e-002	1.184663e-001
7.480843792331853e-003	2.654015e-007	2.654015e-007	2.654015e-007	2.654015e-007	3.846204e-003	8.007968e-003	2.286716e-002	1.222383e-001
7.510041590144473e-003	2.654015e-007	2.654015e-007	2.654015e-007	2.654015e-007	3.861251e-003	8.084194e-003	2.331038e-002	1.317834e-001
7.568437185769711e-003	2.654015e-007	2.654015e-007	2.654015e-007	2.654015e-007	3.891327e-003	8.238283e-003	2.421892e-002	1.542631e-001
7.577980017561357e-003	2.654015e-007	2.654015e-007	2.654015e-007	2.654015e-007	3.896240e-003	8.263762e-003	2.437149e-002	1.587497e-001
7.597065681144648e-003	2.654015e-007	2.654015e-007	2.654015e-007	2.654015e-007	3.906058e-003	8.315347e-003	2.468541e-002	1.704658e-001
7.635237008311229e-003	2.654015e-007	2.654015e-007	2.654015e-007	2.654015e-007	3.925687e-003	8.419381e-003	2.532572e-002	2.015727e-001
7.654898513910830e-003	2.654015e-007	2.654015e-007	2.654015e-007	2.654015e-007	3.935795e-003	8.473394e-003	2.566175e-002	2.236149e-001
7.657218654451534e-003	2.654015e-007	2.654015e-007	2.654015e-007	2.654015e-007	3.936987e-003	8.479808e-003	2.570199e-002	2.272042e-001
7.657798689586710e-003	2.654015e-007	2.654015e-007	2.654015e-007	2.654015e-007	3.937285e-003	8.481415e-003	2.571211e-002	2.282828e-001
7.658958759857062e-003	2.654015e-007	2.654015e-007	2.654015e-007	2.654015e-007	3.937881e-003	8.484631e-003	2.573236e-002	2.307811e-001
7.661278900397766e-003	2.654015e-007	2.654015e-007	2.654015e-007	2.654015e-007	3.939074e-003	8.491068e-003	2.577296e-002	2.371446e-001
7.665919181479174e-003	2.654015e-007	2.654015e-007	2.654015e-007	2.654015e-007	3.941458e-003	8.503966e-003	2.585449e-002	2.534326e-001
7.675199743641989e-003	2.654015e-007	2.654015e-007	2.654015e-007	2.654015e-007	3.946226e-003	8.529829e-003	2.601859e-002	2.929700e-001
7.685373839328069e-003	2.654015e-007	2.654015e-007	2.654015e-007	2.654015e-007	3.951452e-003	8.558310e-003	2.620044e-002	3.452800e-001
7.705722030700228e-003	2.654015e-007	2.654015e-007	2.654015e-007	2.654015e-007	3.961902e-003	8.615629e-003	2.656968e-002	4.699415e-001
7.727650632903666e-003	2.654015e-007	2.654015e-007	2.654015e-007	2.654015e-007	3.973160e-003	8.677888e-003	2.697526e-002	6.251090e-001
7.752693353892777e-003	2.654015e-007	2.654015e-007	2.654015e-007	2.654015e-007	3.986013e-003	8.749666e-003	2.744928e-002	8.225007e-001
7.778769745126450e-003	2.654015e-007	2.654015e-007	2.654015e-007	2.654015e-007	3.999392e-003	8.825213e-003	2.795605e-002	1.039241e+000
7.810686712344001e-003	2.654015e-007	2.654015e-007	2.654015e-007	2.654015e-007	4.015760e-003	8.918842e-003	2.859586e-002	1.305129e+000
7.849348100837305e-003	2.654015e-007	2.654015e-007	2.654015e-007	2.654015e-007	4.035580e-003	9.034036e-003	2.940184e-002	1.609772e+000
7.903161634709336e-003	2.654015e-007	2.654015e-007	2.654015e-007	2.654015e-007	4.063153e-003	9.197896e-003	3.058829e-002	1.978463e+000
7.986692261648453e-003	2.654015e-007	2.654015e-007	2.654015e-007	2.654015e-007	4.105931e-003	9.459631e-003	3.257428e-002	2.425272e+000
8.081931559528806e-003	2.654015e-007	2.654015e-007	2.654015e-007	2.654015e-007	4.154682e-003	9.769495e-003	3.508359e-002	2.769004e+000
8.200882314750505e-003	2.654015e-007	2.654015e-007	2.654015e-007	2.654015e-007	4.215553e-003	1.016964e-002	3.851646e-002	3.039690e+000
8.214863691258768e-003	2.654015e-007	2.654015e-007	2.654015e-007	2.654015e-007	4.222707e-003	1.021802e-002	3.895286e-002	3.059558e+000
8.242826444275295e-003	2.654015e-007	2.654015e-007	2.654015e-007	2.654015e-007	4.237015e-003	1.031704e-002	3.988568e-002	3.082751e+000
8.298751950308349e-003	2.654015e-007	2.654015e-007	2.654015e-007	2.654015e-007	4.265633e-003	1.051737e-002	4.181642e-002	3.115094e+000
8.307521603856154e-003	2.654015e-007	2.654015e-007	2.654015e-007	2.654015e-007	4.270121e-003	1.054918e-002	4.213084e-002	3.117178e+000
8.325060910951764e-003	2.654015e-007	2.654015e-007	2.654015e-007	2.654015e-007	4.279098e-003	1.061341e-002	4.277791e-002	3.115562e+000
8.329445737725667e-003	2.654015e-007	2.654015e-007	2.654015e-007	2.654015e-007	4.281342e-003	1.062954e-002	4.294182e-002	3.113088e+000
8.338215391273472e-003	2.654015e-007	2.654015e-007	2.654015e-007	2.654015e-007	4.285831e-003	1.066196e-002	4.327509e-002	3.101312e+000
8.355754698369081e-003	2.654015e-007	2.654015e-007	2.654015e-007	2.654015e-007	4.294809e-003	1.072723e-002	4.395529e-002	3.065377e+000
8.383279358862213e-003	2.654015e-007	2.654015e-007	2.654015e-007	2.654015e-007	4.308900e-003	1.083062e-002	4.505529e-002	2.994554e+000
8.412701377465279e-003	2.654015e-007	2.654015e-007	2.654015e-007	2.654015e-007	4.323967e-003	1.094283e-002	4.629118e-002	2.907135e+000
8.471545414671412e-003	2.654015e-007	2.654015e-007	2.654015e-007	2.654015e-007	4.354114e-003	1.117327e-002	4.899856e-002	2.716228e+000
8.583311345308931e-003	2.654015e-007	2.654015e-007	2.654015e-007	2.654015e-007	4.411418e-003	1.162570e-002	5.478128e-002	2.344048e+000
8.667049159422435e-003	2.654015e-007	2.654015e-007	2.654015e-007	2.654015e-007	4.454396e-003	1.197803e-002	5.977694e-002	2.070238e+000
8.741209830423508e-003	2.654015e-007	2.654015e-007	2.654015e-007	2.654015e-007	4.492510e-003	1.230349e-002	6.498947e-002	1.839564e+000
8.825753873911569e-003	2.654015e-007	2.654015e-007	2.654015e-007	2.654015e-007	4.536025e-003	1.268964e-002	7.203970e-002	1.594279e+000
8.911846549511649e-003	2.654015e-007	2.654015e-007	2.654015e-007	2.654015e-007	4.580420e-003	1.310010e-002	8.086608e-002	1.366320e+000
9.012478661238317e-003	2.654015e-007	2.654015e-007	2.654015e-007	2.654015e-007	4.632430e-003	1.360351e-002	9.432045e-002	1.129695e+000
9.120774595144500e-003	2.654015e-007	2.654015e-007	2.654015e-007	2.654015e-007	4.688562e-003	1.417504e-002	1.154669e-001	9.102856e-001
9.238792558857126e-003	2.654015e-007	2.654015e-007	2.654015e-007	2.654015e-007	4.749892e-003	1.482649e-002	1.476956e-001	7.027326e-001
9.255522514271064e-003	2.654015e-007	2.654015e-007	2.654015e-007	2.654015e-007	4.758606e-003	1.492234e-002	1.541324e-001	6.767883e-001
9.288982425098936e-003	2.654015e-007	2.654015e-007	2.654015e-007	2.654015e-007	4.776059e-003	1.511855e-002	1.702398e-001	6.290972e-001
9.297347402805904e-003	2.654015e-007	2.654015e-007	2.654015e-007	2.654015e-007	4.780425e-003	1.516809e-002	1.749387e-001	6.175754e-001
9.314077358219841e-003	2.654015e-007	2.654015e-007	2.654015e-007	2.654015e-007	4.789165e-003	1.526840e-002	1.871356e-001	5.955095e-001
9.347537269047714e-003	2.654015e-007	2.654015e-007	2.654015e-007	2.654015e-007	4.806655e-003	1.547073e-002	2.175218e-001	5.526552e-001
9.351899479449862e-003	2.654015e-007	2.654015e-007	2.654015e-007	2.654015e-007	4.808936e-003	1.549732e-002	2.225625e-001	5.472291e-001
9.352990032050399e-003	2.654015e-007	2.654015e-007	2.654015e-007	2.654015e-007	4.809506e-003	1.550401e-002	2.240555e-001	5.459001e-001
9.355171137251473e-003	2.654015e-007	2.654015e-007	2.654015e-007	2.654015e-007	4.810648e-003	1.551739e-002	2.273218e-001	5.432531e-001
9.359533347653621e-003	2.654015e-007	2.654015e-007	2.654015e-007	2.654015e-007	4.812930e-003	1.554423e-002	2.360696e-001	5.380006e-001
9.368257768457919e-003	2.654015e-007	2.654015e-007	2.654015e-007	2.654015e-007	4.817497e-003	1.559810e-002	2.622756e-001	5.276296e-001
9.378829856680315e-003	2.654015e-007	2.654015e-007	2.654015e-007	2.654015e-007	4.823033e-003	1.566374e-002	3.070215e-001	5.153095e-001
9.395088126382331e-003	2.654015e-007	2.654015e-007	2.654015e-007	2.654015e-007	4.831552e-003	1.576543e-002	3.941123e-001	4.968572e-001
9.412251238496289e-003	2.654015e-007	2.654015e-007	2.654015e-007	2.654015e-007	4.840551e-003	1.587398e-002	5.050040e-001	4.781294e-001
9.446577462724204e-003	2.654015e-007	2.654015e-007	2.654015e-007	2.654015e-007	4.858571e-003	1.609456e-002	7.628682e-001	4.427348e-001
9.490398235111563e-003	2.654015e-007	2.654015e-007	2.654015e-007	2.654015e-007	4.881611e-003	1.638217e-002	1.117671e+000	4.008292e-001
9.541866735190786e-003	2.654015e-007	2.654015e-007	2.654015e-007	2.654015e-007	4.908729e-003	1.672955e-002	1.527872e+000	3.563263e-001
9.604859570393238e-003	2.654015e-007	2.654015e-007	2.654015e-007	2.654015e-007	4.942015e-003	1.717059e-002	1.965782e+000	3.085490e-001
9.694349627189198e-003	2.654015e-007	2.654015e-007	2.654015e-007	2.654015e-007	4.989472e-003	1.782584e-002	2.445514e+000	2.507621e-001
9.787760516990015e-003	2.654015e-007	2.654015e-007	2.654015e-007	2.654015e-007	5.039244e-003	1.854977e-002	2.777677e+000	2.014397e-001
9.909005831105181e-003	2.654015e-007	2.654015e-007	2.654015e-007	2.654015e-007	5.104123e-003	1.953690e-002	3.045339e+000	1.484446e-001
9.922824571611503e-003	2.654015e-007	2.654015e-007	2.654015e-007	2.654015e-007	5.111544e-003	1.965412e-002	3.064222e+000	1.432842e-001
9.950462052624145e-003	2.654015e-007	2.654015e-007	2.654015e-007	2.654015e-007	5.126434e-003	1.989674e-002	3.085377e+000	1.342656e-001
1.000573701464943e-002	2.654015e-007	2.654015e-007	2.654015e-007	2.654015e-007	5.156262e-003	2.039078e-002	3.111298e+000	1.173423e-001
1.001955575515575e-002	2.654015e-007	2.654015e-007	2.654015e-007	2.654015e-007	5.163732e-003	2.051659e-002	3.112388e+000	1.133860e-001
1.002301044028233e-002	2.654015e-007	2.654015e-007	2.654015e-007	2.654015e-007	5.165602e-003	2.054844e-002	3.111027e+000	1.124434e-001
1.002991981053549e-002	2.654015e-007	2.654015e-007	2.654015e-007	2.654015e-007	5.169343e-003	2.061244e-002	3.104184e+000	1.105874e-001
1.004373855104182e-002	2.654015e-007	2.654015e-007	2.654015e-007	2.654015e-007	5.176830e-003	2.074147e-002	3.080130e+000	1.069785e-001
1.006851338117500e-002	2.654015e-007	2.654015e-007	2.654015e-007	2.654015e-007	5.190269e-003	2.097562e-002	3.021926e+000	1.007753e-001
1.009419512949757e-002	2.654015e-007	2.654015e-007	2.654015e-007	2.654015e-007	5.204226e-003	2.122323e-002	2.949682e+000	9.476680e-002
1.014555862614271e-002	2.654015e-007	2.654015e-007	2.654015e-007	2.654015e-007	5.232224e-003	2.173433e-002	2.787432e+000	8.395103e-002
1.022419199703640e-002	2.654015e-007	2.654015e-007	2.654015e-007	2.654015e-007	5.275253e-003	2.254914e-002	2.526159e+000	6.947660e-002
1.029672100986489e-002	2.654015e-007	2.654015e-007	2.654015e-007	2.654015e-007	5.315135e-003	2.333890e-002	2.283872e+000	5.816128e-002
1.036925481000853e-002	2.654015e-007	2.654015e-007	2.654015e-007	2.654015e-007	5.355240e-003	2.417416e-002	2.048388e+000	4.876636e-002
1.044959516894389e-002	2.654015e-007	2.654015e-007	2.654015e-007	2.654015e-007	5.399924e-003	2.515559e-002	1.800838e+000	4.016216e-002
1.053540656398045e-002	2.654015e-007	2.654015e-007	2.654015e-007	2.654015e-007	5.447961e-003	2.627331e-002	1.554999e+000	3.264509e-002
1.062449880838028e-002	2.654015e-007	2.654015e-007	2.654015e-007	2.654015e-007	5.498198e-003	2.751964e-002	1.323102e+000	2.636650e-002
1.072200906281197e-002	2.654015e-007	2.654015e-007	2.654015e-007	2.654015e-007	5.553638e-003	2.899920e-002	1.098788e+000	2.094990e-002
1.083486547400861e-002	2.654015e-007	2.654015e-007	2.654015e-007	2.654015e-007	5.618434e-003	3.088526e-002	8.775595e-001	1.615510e-002
1.097041074103166e-002	2.654015e-007	2.654015e-007	2.654015e-007	2.654015e-007	5.697223e-003	3.344661e-002	6.628199e-001	1.196594e-002
1.114198068796222e-002	2.654015e-007	2.654015e-007	2.654015e-007	2.654015e-007	5.798416e-003	3.719886e-002	4.545094e-001	8.301075e-003
1.130207682918830e-002	2.654015e-007	2.654015e-007	2.654015e-007	2.654015e-007	5.894451e-003	4.136296e-002	3.131990e-001	6.058837e-003
1.146975542085579e-002	2.654015e-007	2.654015e-007	2.654015e-007	2.654015e-007	5.996932e-003	4.667282e-002	2.102239e-001	4.603042e-003
1.163265932276288e-002	2.654015e-007	2.654015e-007	2.654015e-007	2.654015e-007	6.098456e-003	5.308236e-002	1.413264e-001	3.756380e-003
1.179234876780829e-002	2.654015e-007	2.654015e-007	2.654015e-007	2.654015e-007	6.200089e-003	6.117465e-002	9.566221e-002	3.309742e-003
1.196266925165326e-002	2.654015e-007	2.654015e-007	2.654015e-007	2.654015e-007	6.310884e-003	7.271602e-002	6.286809e-002	3.110581e-003
1.212073491933247e-002	2.654015e-007	2.654015e-007	2.654015e-007	2.654015e-007	6.416102e-003	8.806945e-002	4.244582e-002	3.105605e-003
1.228144498686820e-002	2.654015e-007	2.654015e-007	2.654015e-007	2.654015e-007	6.525679e-003	1.133508e-001	2.859446e-002	3.233609e-003
1.243566090694296e-002	2.654015e-007	2.654015e-007	2.654015e-007	2.654015e-007	6.633026e-003	1.524452e-001	1.925213e-002	3.440198e-003
1.249673725693689e-002	2.654015e-007	2.654015e-007	2.654015e-007	2.654015e-007	6.676203e-003	1.758111e-001	1.642129e-002	3.542567e-003
1.250754269229957e-002	2.654015e-007	2.654015e-007	2.654015e-007	2.654015e-007	6.683921e-003	1.816673e-001	1.600084e-002	3.562794e-003
1.252915356302493e-002	2.654015e-007	2.654015e-007	2.654015e-007	2.654015e-007	6.699425e-003	1.961779e-001	1.521709e-002	3.604922e-003
1.254448742083505e-002	2.654015e-007	2.654015e-007	2.654015e-007	2.654015e-007	6.710448e-003	2.080526e-001	1.467791e-002	3.635341e-003
1.254832088528758e-002	2.654015e-007	2.654015e-007	2.654015e-007	2.654015e-007	6.713210e-003	2.115525e-001	1.454733e-002	3.643078e-003
1.255598781419264e-002	2.654015e-007	2.654015e-007	2.654015e-007	2.654015e-007	6.718740e-003	2.193436e-001	1.429089e-002	3.658705e-003
1.255790454641891e-002	2.654015e-007	2.654015e-007	2.654015e-007	2.654015e-007	6.720124e-003	2.214608e-001	1.422745e-002	3.662634e-003
1.256173801087144e-002	2.654015e-007	2.654015e-007	2.654015e-007	2.654015e-007	6.722894e-003	2.262883e-001	1.410223e-002	3.670546e-003
1.256940493977650e-002	2.654015e-007	2.654015e-007	2.654015e-007	2.654015e-007	6.728436e-003	2.372479e-001	1.385417e-002	3.686449e-003
1.257132167200276e-002	2.654015e-007	2.654015e-007	2.654015e-007	2.654015e-007	6.729823e-003	2.408479e-001	1.379286e-002	3.690448e-003
1.257515513645529e-002	2.654015e-007	2.654015e-007	2.654015e-007	2.654015e-007	6.732598e-003	2.512811e-001	1.367184e-002	3.698500e-003
1.258282206536036e-002	2.654015e-007	2.654015e-007	2.654015e-007	2.654015e-007	6.738156e-003	2.795694e-001	1.343361e-002	3.714736e-003
1.259511372150216e-002	2.654015e-007	2.654015e-007	2.654015e-007	2.654015e-007	6.747080e-003	3.363087e-001	1.306047e-002	3.741071e-003
1.260801930992158e-002	2.654015e-007	2.654015e-007	2.654015e-007	2.654015e-007	6.756474e-003	4.091567e-001	1.268291e-002	3.769229e-003
1.263383048676043e-002	2.654015e-007	2.654015e-007	2.654015e-007	2.654015e-007	6.775336e-003	5.842903e-001	1.196931e-002	3.827090e-003
1.267269745827304e-002	2.654015e-007	2.654015e-007	2.654015e-007	2.654015e-007	6.803894e-003	8.843757e-001	1.097547e-002	3.917394e-003
1.271928072234791e-002	2.654015e-007	2.654015e-007	2.654015e-007	2.654015e-007	6.838374e-003	1.262843e+000	9.903123e-003	4.030657e-003
1.277385286351512e-002	2.654015e-007	2.654015e-007	2.654015e-007	2.654015e-007	6.879151e-003	1.682428e+000	8.804490e-003	4.170750e-003
1.284436233323630e-002	2.654015e-007	2.654015e-007	2.654015e-007	2.654015e-007	6.932503e-003	2.132003e+000	7.612117e-003	4.364182e-003
1.294786913271730e-002	2.654015e-007	2.654015e-007	2.654015e-007	2.654015e-007	7.012043e-003	2.608689e+000	6.201608e-003	4.670353e-003
1.305358453532912e-002	2.654015e-007	2.654015e-007	2.654015e-007	2.654015e-007	7.094801e-003	2.907875e+000	5.092676e-003	5.010219e-003
